!Agilent Technologies,E5071C,MY46101917,A.08.10
!Date: Mon Jan 01 00:51:35 2001
!Data & Calibration Information:
!Freq	S11:SOLT2(ON)	S21:SOLT2(ON)	S12:SOLT2(ON)	S22:SOLT2(ON)
# Hz S dB R 50
10000000	-4.439873e+001	9.077830e+000	-3.239674e+000	-3.740568e-001	-3.240011e+000	-3.800331e-001	-3.729167e+001	3.122852e+000
31225000	-4.338756e+001	1.667836e+001	-3.244907e+000	-1.103493e+000	-3.246750e+000	-1.132516e+000	-3.691870e+001	3.479172e+000
52450000	-4.281893e+001	1.777962e+001	-3.249139e+000	-1.817441e+000	-3.249285e+000	-1.830255e+000	-3.704136e+001	5.561258e+000
73675000	-4.189954e+001	1.723760e+001	-3.253530e+000	-2.540747e+000	-3.255867e+000	-2.551196e+000	-3.683626e+001	5.102951e+000
94900000	-4.133147e+001	1.775089e+001	-3.257136e+000	-3.228302e+000	-3.255621e+000	-3.263216e+000	-3.668342e+001	5.103652e+000
116125000	-4.114420e+001	1.984513e+001	-3.255783e+000	-3.954068e+000	-3.256599e+000	-3.960797e+000	-3.662528e+001	5.232403e+000
137350000	-4.039477e+001	2.250045e+001	-3.258336e+000	-4.662566e+000	-3.255839e+000	-4.673898e+000	-3.650237e+001	5.158428e+000
158575000	-4.003794e+001	2.445477e+001	-3.258930e+000	-5.367253e+000	-3.258189e+000	-5.381943e+000	-3.639176e+001	7.229024e+000
179800000	-3.973647e+001	2.495238e+001	-3.258526e+000	-6.089296e+000	-3.257153e+000	-6.093482e+000	-3.626396e+001	8.322430e+000
201025000	-3.979581e+001	2.467421e+001	-3.259705e+000	-6.806354e+000	-3.260131e+000	-6.809503e+000	-3.641192e+001	1.032733e+001
222250000	-3.944088e+001	2.767064e+001	-3.259398e+000	-7.501158e+000	-3.261329e+000	-7.522987e+000	-3.610954e+001	1.129580e+001
243475000	-3.882353e+001	2.672202e+001	-3.261030e+000	-8.237709e+000	-3.259601e+000	-8.246358e+000	-3.594672e+001	1.307085e+001
264700000	-3.860291e+001	2.766365e+001	-3.261796e+000	-8.949743e+000	-3.259457e+000	-8.939798e+000	-3.592548e+001	1.336514e+001
285925000	-3.796836e+001	2.878713e+001	-3.261148e+000	-9.645537e+000	-3.259276e+000	-9.665446e+000	-3.588204e+001	1.666862e+001
307150000	-3.792899e+001	3.084670e+001	-3.259919e+000	-1.037688e+001	-3.261435e+000	-1.036826e+001	-3.583721e+001	1.658460e+001
328375000	-3.762696e+001	3.095090e+001	-3.261734e+000	-1.107219e+001	-3.262835e+000	-1.110108e+001	-3.591844e+001	1.767628e+001
349600000	-3.732257e+001	3.148588e+001	-3.261851e+000	-1.180110e+001	-3.261455e+000	-1.180224e+001	-3.595245e+001	2.009754e+001
370825000	-3.698286e+001	3.329433e+001	-3.262549e+000	-1.252384e+001	-3.261799e+000	-1.253731e+001	-3.561445e+001	2.086624e+001
392050000	-3.695630e+001	3.136716e+001	-3.265442e+000	-1.324307e+001	-3.263982e+000	-1.321788e+001	-3.573097e+001	2.391616e+001
413275000	-3.666496e+001	3.183813e+001	-3.265247e+000	-1.393033e+001	-3.265422e+000	-1.396161e+001	-3.564880e+001	2.363671e+001
434500000	-3.637144e+001	3.144880e+001	-3.265202e+000	-1.466138e+001	-3.264948e+000	-1.466556e+001	-3.570632e+001	2.534274e+001
455725000	-3.598465e+001	2.978552e+001	-3.264824e+000	-1.536297e+001	-3.262032e+000	-1.536437e+001	-3.569702e+001	2.461524e+001
476950000	-3.570383e+001	2.851539e+001	-3.262655e+000	-1.608683e+001	-3.264116e+000	-1.608110e+001	-3.565246e+001	2.551452e+001
498175000	-3.543561e+001	2.977177e+001	-3.266189e+000	-1.680564e+001	-3.264801e+000	-1.679836e+001	-3.576239e+001	2.723201e+001
519400000	-3.531354e+001	2.984597e+001	-3.268353e+000	-1.750376e+001	-3.267279e+000	-1.753467e+001	-3.588482e+001	2.721203e+001
540625000	-3.523940e+001	2.939756e+001	-3.271712e+000	-1.823359e+001	-3.268116e+000	-1.824397e+001	-3.569031e+001	2.547869e+001
561850000	-3.506932e+001	2.983573e+001	-3.270521e+000	-1.894202e+001	-3.269698e+000	-1.895051e+001	-3.555183e+001	2.754375e+001
583075000	-3.497746e+001	2.862419e+001	-3.268643e+000	-1.963812e+001	-3.268043e+000	-1.964134e+001	-3.556039e+001	2.639454e+001
604300000	-3.477056e+001	2.764157e+001	-3.268214e+000	-2.034643e+001	-3.267429e+000	-2.035198e+001	-3.554308e+001	2.716710e+001
625525000	-3.476031e+001	2.738622e+001	-3.270316e+000	-2.107267e+001	-3.268940e+000	-2.108030e+001	-3.535734e+001	2.636154e+001
646750000	-3.449839e+001	2.563378e+001	-3.271637e+000	-2.177779e+001	-3.270654e+000	-2.178049e+001	-3.540772e+001	2.654071e+001
667975000	-3.448745e+001	2.413372e+001	-3.269814e+000	-2.250701e+001	-3.273073e+000	-2.251133e+001	-3.506223e+001	2.698838e+001
689200000	-3.407380e+001	2.271670e+001	-3.271078e+000	-2.319977e+001	-3.273493e+000	-2.321470e+001	-3.513465e+001	2.532034e+001
710425000	-3.393236e+001	2.199257e+001	-3.272860e+000	-2.391988e+001	-3.271314e+000	-2.391319e+001	-3.498252e+001	2.622492e+001
731650000	-3.386668e+001	2.071473e+001	-3.274848e+000	-2.462922e+001	-3.269969e+000	-2.463232e+001	-3.460911e+001	2.544759e+001
752875000	-3.354427e+001	2.042296e+001	-3.275720e+000	-2.534064e+001	-3.274128e+000	-2.533689e+001	-3.474714e+001	2.503235e+001
774100000	-3.345236e+001	1.898770e+001	-3.273478e+000	-2.604601e+001	-3.272553e+000	-2.606255e+001	-3.453398e+001	2.598680e+001
795325000	-3.331810e+001	1.822483e+001	-3.273460e+000	-2.676316e+001	-3.276542e+000	-2.677862e+001	-3.389661e+001	2.538396e+001
816550000	-3.310623e+001	1.741834e+001	-3.276861e+000	-2.747574e+001	-3.276416e+000	-2.747973e+001	-3.397607e+001	2.458238e+001
837775000	-3.285280e+001	1.599056e+001	-3.278046e+000	-2.819678e+001	-3.279894e+000	-2.819242e+001	-3.363841e+001	2.615344e+001
859000000	-3.272464e+001	1.489771e+001	-3.279494e+000	-2.890316e+001	-3.278867e+000	-2.890311e+001	-3.351872e+001	2.635587e+001
880225000	-3.239237e+001	1.240158e+001	-3.278864e+000	-2.962128e+001	-3.277373e+000	-2.960325e+001	-3.317394e+001	2.736014e+001
901450000	-3.226429e+001	1.169655e+001	-3.281675e+000	-3.031397e+001	-3.279984e+000	-3.032242e+001	-3.303555e+001	2.834499e+001
922675000	-3.205598e+001	1.027307e+001	-3.281583e+000	-3.103202e+001	-3.279137e+000	-3.103556e+001	-3.280290e+001	2.865066e+001
943900000	-3.202497e+001	1.048121e+001	-3.277046e+000	-3.174280e+001	-3.280129e+000	-3.175851e+001	-3.275438e+001	2.888566e+001
965125000	-3.207747e+001	9.256828e+000	-3.277486e+000	-3.244605e+001	-3.280981e+000	-3.246437e+001	-3.266948e+001	2.847153e+001
986350000	-3.201077e+001	8.794603e+000	-3.279815e+000	-3.316935e+001	-3.281747e+000	-3.316588e+001	-3.248129e+001	2.908234e+001
1007575000	-3.187102e+001	6.529820e+000	-3.280764e+000	-3.391185e+001	-3.282709e+000	-3.386853e+001	-3.221588e+001	2.916761e+001
1028800000	-3.186327e+001	5.137233e+000	-3.282110e+000	-3.460094e+001	-3.284174e+000	-3.457748e+001	-3.205464e+001	3.063165e+001
1050025000	-3.165019e+001	3.889562e+000	-3.286339e+000	-3.530080e+001	-3.281453e+000	-3.527906e+001	-3.193437e+001	3.126804e+001
1071250000	-3.151935e+001	3.520676e+000	-3.283752e+000	-3.601802e+001	-3.280551e+000	-3.601229e+001	-3.191169e+001	3.191413e+001
1092475000	-3.141744e+001	5.899746e-001	-3.283227e+000	-3.671979e+001	-3.286134e+000	-3.673014e+001	-3.183617e+001	3.134298e+001
1113700000	-3.119977e+001	1.057971e+000	-3.280702e+000	-3.745094e+001	-3.285086e+000	-3.745111e+001	-3.171160e+001	3.191692e+001
1134925000	-3.123368e+001	-1.845111e-001	-3.285124e+000	-3.815555e+001	-3.285370e+000	-3.814714e+001	-3.166516e+001	3.201004e+001
1156150000	-3.118552e+001	-1.256598e+000	-3.284663e+000	-3.887890e+001	-3.288116e+000	-3.883102e+001	-3.137397e+001	3.184753e+001
1177375000	-3.110800e+001	-2.138719e+000	-3.288767e+000	-3.958923e+001	-3.289367e+000	-3.955422e+001	-3.120880e+001	3.259739e+001
1198600000	-3.099832e+001	-4.728632e+000	-3.287540e+000	-4.028417e+001	-3.285302e+000	-4.025397e+001	-3.102080e+001	3.292574e+001
1219825000	-3.106763e+001	-5.701276e+000	-3.290715e+000	-4.098281e+001	-3.287824e+000	-4.098444e+001	-3.104417e+001	3.411031e+001
1241050000	-3.100003e+001	-6.313681e+000	-3.287038e+000	-4.171123e+001	-3.286371e+000	-4.170865e+001	-3.092690e+001	3.461055e+001
1262275000	-3.102703e+001	-7.435944e+000	-3.288774e+000	-4.239945e+001	-3.288207e+000	-4.240639e+001	-3.092694e+001	3.505560e+001
1283500000	-3.086067e+001	-8.112683e+000	-3.289582e+000	-4.313996e+001	-3.287936e+000	-4.312313e+001	-3.098471e+001	3.580619e+001
1304725000	-3.073113e+001	-9.274564e+000	-3.290126e+000	-4.383106e+001	-3.288340e+000	-4.383547e+001	-3.091321e+001	3.634579e+001
1325950000	-3.086269e+001	-1.069370e+001	-3.290344e+000	-4.455496e+001	-3.290011e+000	-4.455210e+001	-3.085249e+001	3.523170e+001
1347175000	-3.089148e+001	-1.120085e+001	-3.292907e+000	-4.527311e+001	-3.288892e+000	-4.524721e+001	-3.083322e+001	3.584251e+001
1368400000	-3.091367e+001	-1.387106e+001	-3.292094e+000	-4.599230e+001	-3.290523e+000	-4.593186e+001	-3.075357e+001	3.444597e+001
1389625000	-3.086580e+001	-1.446829e+001	-3.293734e+000	-4.668810e+001	-3.288752e+000	-4.665725e+001	-3.077122e+001	3.516380e+001
1410850000	-3.096986e+001	-1.691332e+001	-3.298674e+000	-4.736917e+001	-3.287589e+000	-4.737481e+001	-3.079642e+001	3.517851e+001
1432075000	-3.097229e+001	-1.972085e+001	-3.292562e+000	-4.806393e+001	-3.284181e+000	-4.810863e+001	-3.074994e+001	3.512527e+001
1453300000	-3.090695e+001	-2.051997e+001	-3.291917e+000	-4.876760e+001	-3.288070e+000	-4.882474e+001	-3.085801e+001	3.398481e+001
1474525000	-3.089436e+001	-2.166435e+001	-3.290443e+000	-4.950126e+001	-3.293659e+000	-4.953655e+001	-3.073559e+001	3.342365e+001
1495750000	-3.090410e+001	-2.375812e+001	-3.289775e+000	-5.023447e+001	-3.292341e+000	-5.022730e+001	-3.094760e+001	3.240337e+001
1516975000	-3.080532e+001	-2.515246e+001	-3.292549e+000	-5.094795e+001	-3.293487e+000	-5.092004e+001	-3.062355e+001	3.188019e+001
1538200000	-3.088394e+001	-2.638803e+001	-3.296436e+000	-5.165791e+001	-3.289398e+000	-5.162978e+001	-3.060999e+001	2.981652e+001
1559425000	-3.072756e+001	-2.867481e+001	-3.301723e+000	-5.236200e+001	-3.288007e+000	-5.234172e+001	-3.060804e+001	2.929868e+001
1580650000	-3.084179e+001	-3.114020e+001	-3.297337e+000	-5.303626e+001	-3.287402e+000	-5.306372e+001	-3.052472e+001	2.914428e+001
1601875000	-3.066310e+001	-3.291419e+001	-3.295272e+000	-5.375022e+001	-3.286724e+000	-5.382336e+001	-3.035665e+001	2.887823e+001
1623100000	-3.059514e+001	-3.485164e+001	-3.289199e+000	-5.446622e+001	-3.291060e+000	-5.454113e+001	-3.058342e+001	2.813067e+001
1644325000	-3.055814e+001	-3.736360e+001	-3.290196e+000	-5.520371e+001	-3.291634e+000	-5.527100e+001	-3.034721e+001	2.749872e+001
1665550000	-3.046951e+001	-3.885853e+001	-3.291283e+000	-5.592461e+001	-3.298988e+000	-5.594839e+001	-3.003883e+001	2.556399e+001
1686775000	-3.040992e+001	-4.047066e+001	-3.294840e+000	-5.665734e+001	-3.298594e+000	-5.663413e+001	-2.984389e+001	2.590433e+001
1708000000	-3.040205e+001	-4.168038e+001	-3.299021e+000	-5.733439e+001	-3.294081e+000	-5.734816e+001	-2.990823e+001	2.457815e+001
1729225000	-3.050571e+001	-4.336714e+001	-3.301497e+000	-5.804201e+001	-3.298245e+000	-5.807277e+001	-2.986308e+001	2.419372e+001
1750450000	-3.045591e+001	-4.355977e+001	-3.300397e+000	-5.873637e+001	-3.293689e+000	-5.880504e+001	-2.972105e+001	2.273548e+001
1771675000	-3.042215e+001	-4.642872e+001	-3.301054e+000	-5.945766e+001	-3.295692e+000	-5.950647e+001	-2.949536e+001	2.305129e+001
1792900000	-3.044684e+001	-4.897644e+001	-3.299667e+000	-6.015562e+001	-3.296142e+000	-6.022324e+001	-2.944293e+001	2.178791e+001
1814125000	-3.027633e+001	-5.086942e+001	-3.302849e+000	-6.087148e+001	-3.295856e+000	-6.093050e+001	-2.937006e+001	2.091574e+001
1835350000	-3.021671e+001	-5.324454e+001	-3.296996e+000	-6.157615e+001	-3.294877e+000	-6.166636e+001	-2.918767e+001	2.064757e+001
1856575000	-3.000127e+001	-5.599937e+001	-3.295124e+000	-6.228420e+001	-3.297200e+000	-6.242105e+001	-2.927420e+001	1.989303e+001
1877800000	-2.988004e+001	-5.597642e+001	-3.293841e+000	-6.302797e+001	-3.305598e+000	-6.313104e+001	-2.898422e+001	2.028823e+001
1899025000	-2.982683e+001	-5.812627e+001	-3.295251e+000	-6.375627e+001	-3.312852e+000	-6.379479e+001	-2.876920e+001	1.911734e+001
1920250000	-2.986557e+001	-5.853709e+001	-3.302229e+000	-6.448974e+001	-3.312477e+000	-6.446954e+001	-2.876259e+001	1.863464e+001
1941475000	-3.003396e+001	-5.954601e+001	-3.307586e+000	-6.516572e+001	-3.307910e+000	-6.514671e+001	-2.860131e+001	1.863225e+001
1962700000	-3.008425e+001	-6.069628e+001	-3.305358e+000	-6.582945e+001	-3.300037e+000	-6.587185e+001	-2.868392e+001	1.809920e+001
1983925000	-2.998076e+001	-6.285207e+001	-3.303876e+000	-6.651820e+001	-3.298303e+000	-6.664122e+001	-2.861058e+001	1.748008e+001
2005150000	-3.002343e+001	-6.491284e+001	-3.296826e+000	-6.724245e+001	-3.301662e+000	-6.737501e+001	-2.838394e+001	1.677205e+001
2026375000	-3.005587e+001	-6.796085e+001	-3.291312e+000	-6.798653e+001	-3.309294e+000	-6.815565e+001	-2.821169e+001	1.726834e+001
2047600000	-2.997518e+001	-6.971040e+001	-3.292402e+000	-6.874372e+001	-3.315792e+000	-6.885810e+001	-2.821527e+001	1.726400e+001
2068825000	-2.988873e+001	-7.162052e+001	-3.298797e+000	-6.949714e+001	-3.323022e+000	-6.951716e+001	-2.821268e+001	1.645925e+001
2090050000	-3.001109e+001	-7.273015e+001	-3.308908e+000	-7.019976e+001	-3.326958e+000	-7.017203e+001	-2.802524e+001	1.684851e+001
2111275000	-2.993847e+001	-7.364024e+001	-3.311026e+000	-7.090301e+001	-3.322867e+000	-7.082520e+001	-2.804723e+001	1.680560e+001
2132500000	-3.016697e+001	-7.484377e+001	-3.311685e+000	-7.156766e+001	-3.316400e+000	-7.151995e+001	-2.823091e+001	1.598374e+001
2153725000	-3.032253e+001	-7.649612e+001	-3.309413e+000	-7.226404e+001	-3.309063e+000	-7.228537e+001	-2.803326e+001	1.552338e+001
2174950000	-3.059153e+001	-7.826689e+001	-3.307105e+000	-7.300091e+001	-3.307726e+000	-7.306255e+001	-2.807781e+001	1.532808e+001
2196175000	-3.070731e+001	-8.090590e+001	-3.304083e+000	-7.372424e+001	-3.314905e+000	-7.382031e+001	-2.792426e+001	1.542880e+001
2217400000	-3.044984e+001	-8.357558e+001	-3.305701e+000	-7.443893e+001	-3.324233e+000	-7.455641e+001	-2.792021e+001	1.481428e+001
2238625000	-3.046154e+001	-8.496717e+001	-3.308598e+000	-7.514102e+001	-3.333375e+000	-7.522443e+001	-2.776466e+001	1.404969e+001
2259850000	-3.040493e+001	-8.846430e+001	-3.308857e+000	-7.587143e+001	-3.340166e+000	-7.590053e+001	-2.782574e+001	1.380927e+001
2281075000	-3.028844e+001	-9.022538e+001	-3.309028e+000	-7.658772e+001	-3.340065e+000	-7.656408e+001	-2.773971e+001	1.399714e+001
2302300000	-3.035409e+001	-9.181319e+001	-3.307183e+000	-7.728263e+001	-3.342563e+000	-7.724521e+001	-2.788904e+001	1.435980e+001
2323525000	-3.035193e+001	-9.323747e+001	-3.309749e+000	-7.804928e+001	-3.337489e+000	-7.789721e+001	-2.786153e+001	1.371354e+001
2344750000	-3.050478e+001	-9.435963e+001	-3.314292e+000	-7.874928e+001	-3.327423e+000	-7.860187e+001	-2.791572e+001	1.375352e+001
2365975000	-3.059073e+001	-9.677445e+001	-3.319699e+000	-7.942918e+001	-3.318945e+000	-7.937049e+001	-2.800562e+001	1.286019e+001
2387200000	-3.050729e+001	-9.973156e+001	-3.315134e+000	-8.008931e+001	-3.322107e+000	-8.017402e+001	-2.801813e+001	1.256894e+001
2408425000	-3.062157e+001	-1.026149e+002	-3.306918e+000	-8.080800e+001	-3.338538e+000	-8.093168e+001	-2.804565e+001	1.200848e+001
2429650000	-3.078882e+001	-1.050363e+002	-3.301187e+000	-8.154557e+001	-3.360412e+000	-8.159845e+001	-2.809528e+001	1.114217e+001
2450875000	-3.058544e+001	-1.079510e+002	-3.299730e+000	-8.233846e+001	-3.369563e+000	-8.215202e+001	-2.804221e+001	1.114165e+001
2472100000	-3.064091e+001	-1.113036e+002	-3.309782e+000	-8.312137e+001	-3.357598e+000	-8.272688e+001	-2.800159e+001	1.022844e+001
2493325000	-3.058170e+001	-1.141376e+002	-3.326255e+000	-8.383670e+001	-3.334085e+000	-8.337914e+001	-2.814958e+001	9.749911e+000
2514550000	-3.048356e+001	-1.167449e+002	-3.334831e+000	-8.448179e+001	-3.311765e+000	-8.419250e+001	-2.825238e+001	9.194740e+000
2535775000	-3.031538e+001	-1.193788e+002	-3.336839e+000	-8.512323e+001	-3.307408e+000	-8.505805e+001	-2.829013e+001	8.020645e+000
2557000000	-3.030517e+001	-1.214136e+002	-3.328182e+000	-8.576645e+001	-3.322389e+000	-8.589009e+001	-2.836922e+001	6.874631e+000
2578225000	-3.039367e+001	-1.232626e+002	-3.317489e+000	-8.649017e+001	-3.345233e+000	-8.665522e+001	-2.817449e+001	6.445381e+000
2599450000	-3.029477e+001	-1.245532e+002	-3.305858e+000	-8.723600e+001	-3.368992e+000	-8.729422e+001	-2.831743e+001	5.269384e+000
2620675000	-3.012583e+001	-1.274730e+002	-3.304054e+000	-8.802592e+001	-3.384360e+000	-8.786824e+001	-2.825036e+001	4.237901e+000
2641900000	-2.997512e+001	-1.298094e+002	-3.308647e+000	-8.883343e+001	-3.380014e+000	-8.840088e+001	-2.827428e+001	4.108137e+000
2663125000	-2.979150e+001	-1.327690e+002	-3.324614e+000	-8.961742e+001	-3.361533e+000	-8.895198e+001	-2.813272e+001	2.975332e+000
2684350000	-2.962299e+001	-1.346512e+002	-3.344972e+000	-9.028956e+001	-3.328438e+000	-8.965675e+001	-2.832013e+001	2.569187e+000
2705575000	-2.962898e+001	-1.350804e+002	-3.356333e+000	-9.088500e+001	-3.307489e+000	-9.051799e+001	-2.833085e+001	1.162487e+000
2726800000	-2.956341e+001	-1.375883e+002	-3.352999e+000	-9.143990e+001	-3.309078e+000	-9.146108e+001	-2.836065e+001	8.255715e-001
2748025000	-2.957991e+001	-1.383059e+002	-3.327686e+000	-9.207662e+001	-3.338672e+000	-9.234452e+001	-2.841319e+001	-3.028969e-001
2769250000	-2.952991e+001	-1.388987e+002	-3.310336e+000	-9.285797e+001	-3.379508e+000	-9.300733e+001	-2.849562e+001	-1.107080e+000
2790475000	-2.951026e+001	-1.411928e+002	-3.303382e+000	-9.375260e+001	-3.405596e+000	-9.348069e+001	-2.837757e+001	-2.061172e+000
2811700000	-2.944487e+001	-1.430783e+002	-3.318324e+000	-9.462234e+001	-3.395727e+000	-9.391901e+001	-2.849360e+001	-3.038877e+000
2832925000	-2.942245e+001	-1.457384e+002	-3.341556e+000	-9.536781e+001	-3.362410e+000	-9.448587e+001	-2.856597e+001	-4.098286e+000
2854150000	-2.937807e+001	-1.475270e+002	-3.363682e+000	-9.600663e+001	-3.326516e+000	-9.522847e+001	-2.846094e+001	-6.548385e+000
2875375000	-2.955967e+001	-1.500246e+002	-3.373674e+000	-9.661967e+001	-3.303749e+000	-9.609459e+001	-2.848478e+001	-7.517146e+000
2896600000	-2.970040e+001	-1.505349e+002	-3.370795e+000	-9.720586e+001	-3.305669e+000	-9.701008e+001	-2.840032e+001	-7.026382e+000
2917825000	-2.971223e+001	-1.526864e+002	-3.359917e+000	-9.783266e+001	-3.328483e+000	-9.785818e+001	-2.834302e+001	-7.918474e+000
2939050000	-2.966393e+001	-1.549625e+002	-3.343952e+000	-9.851859e+001	-3.356278e+000	-9.855178e+001	-2.832717e+001	-7.952313e+000
2960275000	-2.957244e+001	-1.566912e+002	-3.330383e+000	-9.932753e+001	-3.380009e+000	-9.914031e+001	-2.827179e+001	-8.443620e+000
2981500000	-2.966319e+001	-1.579323e+002	-3.326318e+000	-1.001526e+002	-3.385750e+000	-9.962982e+001	-2.819070e+001	-8.448563e+000
3002725000	-2.957181e+001	-1.612851e+002	-3.341208e+000	-1.009944e+002	-3.362317e+000	-1.001420e+002	-2.825179e+001	-9.577085e+000
3023950000	-2.966825e+001	-1.634807e+002	-3.365381e+000	-1.017308e+002	-3.322996e+000	-1.007829e+002	-2.820069e+001	-1.068945e+001
3045175000	-2.978952e+001	-1.656928e+002	-3.386854e+000	-1.023361e+002	-3.291256e+000	-1.016415e+002	-2.821798e+001	-1.120620e+001
3066400000	-2.981463e+001	-1.677893e+002	-3.392566e+000	-1.028925e+002	-3.283147e+000	-1.026020e+002	-2.823256e+001	-1.146792e+001
3087625000	-2.975616e+001	-1.690220e+002	-3.378071e+000	-1.034813e+002	-3.304423e+000	-1.034917e+002	-2.829645e+001	-1.120870e+001
3108850000	-2.990025e+001	-1.713527e+002	-3.354820e+000	-1.041892e+002	-3.334762e+000	-1.042227e+002	-2.829789e+001	-1.243069e+001
3130075000	-2.978727e+001	-1.743368e+002	-3.343550e+000	-1.050078e+002	-3.352852e+000	-1.048032e+002	-2.820997e+001	-1.260174e+001
3151300000	-2.972541e+001	-1.781412e+002	-3.344708e+000	-1.058313e+002	-3.348804e+000	-1.053354e+002	-2.828029e+001	-1.271715e+001
3172525000	-2.965417e+001	1.794215e+002	-3.360659e+000	-1.066087e+002	-3.331653e+000	-1.059788e+002	-2.827682e+001	-1.296241e+001
3193750000	-2.953066e+001	1.761078e+002	-3.374310e+000	-1.073212e+002	-3.313570e+000	-1.066719e+002	-2.830498e+001	-1.400971e+001
3214975000	-2.954062e+001	1.740790e+002	-3.386228e+000	-1.079775e+002	-3.301377e+000	-1.074749e+002	-2.835643e+001	-1.358017e+001
3236200000	-2.940760e+001	1.726136e+002	-3.392160e+000	-1.086450e+002	-3.295270e+000	-1.082577e+002	-2.846246e+001	-1.418354e+001
