!Agilent Technologies,E5071C,MY46101917,A.08.10
!Date: Mon Jan 01 00:51:00 2001
!Data & Calibration Information:
!Freq	S11:SOLT2(ON)
# Hz S dB R 50
10000000	-4.488679e+001	8.160105e+000
31225000	-4.341285e+001	1.514565e+001
52450000	-4.284777e+001	1.713651e+001
73675000	-4.176452e+001	1.760148e+001
94900000	-4.138799e+001	1.779527e+001
116125000	-4.107961e+001	1.999976e+001
137350000	-4.077533e+001	2.333864e+001
158575000	-4.038712e+001	2.333039e+001
179800000	-3.971247e+001	2.408706e+001
201025000	-3.962160e+001	2.531154e+001
222250000	-3.937845e+001	2.534908e+001
243475000	-3.894834e+001	2.712566e+001
264700000	-3.865480e+001	2.728970e+001
285925000	-3.814262e+001	3.020055e+001
307150000	-3.794230e+001	3.056680e+001
328375000	-3.745821e+001	3.046418e+001
349600000	-3.736748e+001	3.233485e+001
370825000	-3.707357e+001	3.311898e+001
392050000	-3.686078e+001	3.174958e+001
413275000	-3.648180e+001	3.148695e+001
434500000	-3.626116e+001	3.184222e+001
455725000	-3.593308e+001	2.993778e+001
476950000	-3.560826e+001	2.894054e+001
498175000	-3.549622e+001	2.996118e+001
519400000	-3.539010e+001	2.882673e+001
540625000	-3.520206e+001	2.921546e+001
561850000	-3.518685e+001	3.009772e+001
583075000	-3.489009e+001	2.800790e+001
604300000	-3.469579e+001	2.734878e+001
625525000	-3.474469e+001	2.597051e+001
646750000	-3.451289e+001	2.496121e+001
667975000	-3.439642e+001	2.447607e+001
689200000	-3.409705e+001	2.252577e+001
710425000	-3.401604e+001	2.220371e+001
731650000	-3.379181e+001	2.145737e+001
752875000	-3.348386e+001	1.981473e+001
774100000	-3.346661e+001	1.829536e+001
795325000	-3.321896e+001	1.822174e+001
816550000	-3.312850e+001	1.673498e+001
837775000	-3.290093e+001	1.593877e+001
859000000	-3.266433e+001	1.507568e+001
880225000	-3.250267e+001	1.336029e+001
901450000	-3.225695e+001	1.183749e+001
922675000	-3.218854e+001	1.056757e+001
943900000	-3.201824e+001	1.062002e+001
965125000	-3.201942e+001	9.114975e+000
986350000	-3.200369e+001	8.273498e+000
1007575000	-3.182626e+001	6.872386e+000
1028800000	-3.185259e+001	4.968805e+000
1050025000	-3.162211e+001	3.899240e+000
1071250000	-3.154955e+001	3.489843e+000
1092475000	-3.141705e+001	1.000468e+000
1113700000	-3.117703e+001	-9.759786e-002
1134925000	-3.119719e+001	-6.820704e-001
1156150000	-3.111811e+001	-1.199798e+000
1177375000	-3.108732e+001	-2.350806e+000
1198600000	-3.097280e+001	-4.277094e+000
1219825000	-3.107244e+001	-5.889222e+000
1241050000	-3.097028e+001	-6.759755e+000
1262275000	-3.101452e+001	-7.472947e+000
1283500000	-3.084666e+001	-7.845360e+000
1304725000	-3.078595e+001	-9.337798e+000
1325950000	-3.078565e+001	-1.093070e+001
1347175000	-3.084722e+001	-1.129429e+001
1368400000	-3.101745e+001	-1.387308e+001
1389625000	-3.092737e+001	-1.457938e+001
1410850000	-3.101575e+001	-1.657843e+001
1432075000	-3.098743e+001	-1.939267e+001
1453300000	-3.090035e+001	-2.070204e+001
1474525000	-3.087260e+001	-2.142014e+001
1495750000	-3.084213e+001	-2.322134e+001
1516975000	-3.079239e+001	-2.511092e+001
1538200000	-3.092642e+001	-2.735842e+001
1559425000	-3.086501e+001	-2.932243e+001
1580650000	-3.081026e+001	-3.133440e+001
1601875000	-3.075085e+001	-3.354160e+001
1623100000	-3.060607e+001	-3.476815e+001
1644325000	-3.047200e+001	-3.679874e+001
1665550000	-3.045494e+001	-3.863227e+001
1686775000	-3.045727e+001	-4.033191e+001
1708000000	-3.043684e+001	-4.213277e+001
1729225000	-3.042149e+001	-4.274887e+001
1750450000	-3.036782e+001	-4.410935e+001
1771675000	-3.043017e+001	-4.672102e+001
1792900000	-3.051676e+001	-4.836302e+001
1814125000	-3.033558e+001	-5.025109e+001
1835350000	-3.021990e+001	-5.337597e+001
1856575000	-3.001546e+001	-5.536460e+001
1877800000	-2.987096e+001	-5.591850e+001
1899025000	-2.988927e+001	-5.775248e+001
1920250000	-2.980542e+001	-5.885300e+001
1941475000	-2.995517e+001	-5.977245e+001
1962700000	-3.003299e+001	-6.050204e+001
1983925000	-2.993930e+001	-6.273158e+001
2005150000	-3.002624e+001	-6.513721e+001
2026375000	-3.009426e+001	-6.797417e+001
2047600000	-2.998110e+001	-7.021858e+001
2068825000	-2.984279e+001	-7.140144e+001
2090050000	-3.004455e+001	-7.269209e+001
2111275000	-2.997131e+001	-7.339108e+001
2132500000	-3.011474e+001	-7.467922e+001
2153725000	-3.032192e+001	-7.629446e+001
2174950000	-3.057896e+001	-7.799497e+001
2196175000	-3.068018e+001	-8.114613e+001
2217400000	-3.036799e+001	-8.362459e+001
2238625000	-3.052460e+001	-8.511425e+001
2259850000	-3.039171e+001	-8.834682e+001
2281075000	-3.032925e+001	-8.965293e+001
2302300000	-3.028801e+001	-9.172436e+001
2323525000	-3.028298e+001	-9.328734e+001
2344750000	-3.058160e+001	-9.495262e+001
2365975000	-3.059888e+001	-9.659436e+001
2387200000	-3.062461e+001	-9.924425e+001
2408425000	-3.068572e+001	-1.028590e+002
2429650000	-3.092129e+001	-1.055845e+002
2450875000	-3.051565e+001	-1.085065e+002
2472100000	-3.057391e+001	-1.109304e+002
2493325000	-3.055233e+001	-1.135333e+002
2514550000	-3.048462e+001	-1.175601e+002
2535775000	-3.029169e+001	-1.197353e+002
2557000000	-3.029357e+001	-1.211454e+002
2578225000	-3.047263e+001	-1.235470e+002
2599450000	-3.025377e+001	-1.248166e+002
2620675000	-3.004447e+001	-1.275877e+002
2641900000	-2.990854e+001	-1.297450e+002
2663125000	-2.984075e+001	-1.325436e+002
2684350000	-2.968588e+001	-1.343700e+002
2705575000	-2.968688e+001	-1.348875e+002
2726800000	-2.946434e+001	-1.372900e+002
2748025000	-2.950556e+001	-1.384781e+002
2769250000	-2.951918e+001	-1.390409e+002
2790475000	-2.948114e+001	-1.414362e+002
2811700000	-2.937503e+001	-1.436353e+002
2832925000	-2.941959e+001	-1.455071e+002
2854150000	-2.944033e+001	-1.476814e+002
2875375000	-2.960557e+001	-1.499848e+002
2896600000	-2.958407e+001	-1.508075e+002
2917825000	-2.963092e+001	-1.526896e+002
2939050000	-2.960297e+001	-1.547980e+002
2960275000	-2.962233e+001	-1.566713e+002
2981500000	-2.960263e+001	-1.580867e+002
3002725000	-2.957772e+001	-1.614094e+002
3023950000	-2.961959e+001	-1.637682e+002
3045175000	-2.976637e+001	-1.661093e+002
3066400000	-2.973545e+001	-1.677893e+002
3087625000	-2.974742e+001	-1.688241e+002
3108850000	-2.984114e+001	-1.714391e+002
3130075000	-2.980168e+001	-1.745299e+002
3151300000	-2.973220e+001	-1.776370e+002
3172525000	-2.967259e+001	1.796146e+002
3193750000	-2.952637e+001	1.765840e+002
3214975000	-2.951028e+001	1.742930e+002
3236200000	-2.949077e+001	1.724307e+002
3257425000	-2.931092e+001	1.705206e+002
3278650000	-2.930036e+001	1.693573e+002
3299875000	-2.929873e+001	1.670962e+002
3321100000	-2.924891e+001	1.641732e+002
3342325000	-2.903853e+001	1.618018e+002
3363550000	-2.901636e+001	1.591149e+002
3384775000	-2.874518e+001	1.580435e+002
3406000000	-2.854383e+001	1.565880e+002
3427225000	-2.842925e+001	1.552570e+002
3448450000	-2.834216e+001	1.537812e+002
3469675000	-2.845446e+001	1.525227e+002
3490900000	-2.840727e+001	1.496724e+002
3512125000	-2.850545e+001	1.484002e+002
3533350000	-2.831145e+001	1.467393e+002
3554575000	-2.827889e+001	1.436444e+002
3575800000	-2.811728e+001	1.425019e+002
3597025000	-2.802534e+001	1.409154e+002
3618250000	-2.796697e+001	1.386532e+002
3639475000	-2.795079e+001	1.380025e+002
3660700000	-2.792231e+001	1.365231e+002
3681925000	-2.793072e+001	1.347708e+002
3703150000	-2.800007e+001	1.326622e+002
3724375000	-2.790828e+001	1.312011e+002
3745600000	-2.782241e+001	1.288687e+002
3766825000	-2.789916e+001	1.278112e+002
3788050000	-2.771911e+001	1.259587e+002
3809275000	-2.782492e+001	1.245789e+002
3830500000	-2.785494e+001	1.231887e+002
3851725000	-2.777168e+001	1.217178e+002
3872950000	-2.762446e+001	1.193066e+002
3894175000	-2.769334e+001	1.171474e+002
3915400000	-2.774943e+001	1.151255e+002
3936625000	-2.779054e+001	1.130844e+002
3957850000	-2.777737e+001	1.109480e+002
3979075000	-2.783959e+001	1.094521e+002
4000300000	-2.767863e+001	1.070132e+002
4021525000	-2.764095e+001	1.058709e+002
4042750000	-2.754077e+001	1.032767e+002
4063975000	-2.749866e+001	1.018950e+002
4085200000	-2.751511e+001	9.939554e+001
4106425000	-2.746251e+001	9.775222e+001
4127650000	-2.748950e+001	9.611051e+001
4148875000	-2.734777e+001	9.464295e+001
4170100000	-2.730099e+001	9.244241e+001
4191325000	-2.731021e+001	9.060000e+001
4212550000	-2.719068e+001	8.898465e+001
4233775000	-2.703695e+001	8.759545e+001
4255000000	-2.699802e+001	8.604217e+001
4276225000	-2.692681e+001	8.464477e+001
4297450000	-2.695083e+001	8.350115e+001
4318675000	-2.691219e+001	8.227393e+001
4339900000	-2.690032e+001	8.080383e+001
4361125000	-2.684906e+001	7.928729e+001
4382350000	-2.689946e+001	7.795766e+001
4403575000	-2.682347e+001	7.623150e+001
4424800000	-2.687444e+001	7.501649e+001
4446025000	-2.688852e+001	7.338843e+001
4467250000	-2.686671e+001	7.253248e+001
4488475000	-2.686258e+001	7.078675e+001
4509700000	-2.691914e+001	6.903013e+001
4530925000	-2.685803e+001	6.791366e+001
4552150000	-2.697636e+001	6.638851e+001
4573375000	-2.702630e+001	6.514752e+001
4594600000	-2.711169e+001	6.325451e+001
4615825000	-2.714205e+001	6.129688e+001
4637050000	-2.713748e+001	5.981798e+001
4658275000	-2.709870e+001	5.761167e+001
4679500000	-2.703278e+001	5.579619e+001
4700725000	-2.709420e+001	5.429556e+001
4721950000	-2.697920e+001	5.217038e+001
4743175000	-2.690004e+001	5.117518e+001
4764400000	-2.700894e+001	4.939198e+001
4785625000	-2.704294e+001	4.863463e+001
4806850000	-2.698157e+001	4.658677e+001
4828075000	-2.694487e+001	4.515026e+001
4849300000	-2.695959e+001	4.350299e+001
4870525000	-2.693461e+001	4.154406e+001
4891750000	-2.686838e+001	3.997850e+001
4912975000	-2.683764e+001	3.890543e+001
4934200000	-2.684654e+001	3.778632e+001
4955425000	-2.696642e+001	3.622264e+001
4976650000	-2.686627e+001	3.534571e+001
4997875000	-2.690840e+001	3.398694e+001
5019100000	-2.689508e+001	3.197887e+001
5040325000	-2.689481e+001	3.087120e+001
5061550000	-2.685808e+001	2.928724e+001
5082775000	-2.682431e+001	2.791013e+001
5104000000	-2.687971e+001	2.689348e+001
5125225000	-2.683387e+001	2.574677e+001
5146450000	-2.675257e+001	2.442435e+001
5167675000	-2.686785e+001	2.344552e+001
5188900000	-2.690790e+001	2.214832e+001
5210125000	-2.689199e+001	2.091292e+001
5231350000	-2.692018e+001	1.979912e+001
5252575000	-2.694519e+001	1.837035e+001
5273800000	-2.692550e+001	1.712789e+001
5295025000	-2.694663e+001	1.555283e+001
5316250000	-2.692721e+001	1.476765e+001
5337475000	-2.693920e+001	1.313177e+001
5358700000	-2.695262e+001	1.196986e+001
5379925000	-2.698148e+001	1.101153e+001
5401150000	-2.695411e+001	1.009905e+001
5422375000	-2.696712e+001	9.155457e+000
5443600000	-2.705460e+001	8.031222e+000
5464825000	-2.708212e+001	6.874778e+000
5486050000	-2.707047e+001	5.911548e+000
5507275000	-2.711588e+001	4.291154e+000
5528500000	-2.718407e+001	3.293260e+000
5549725000	-2.718146e+001	2.567065e+000
5570950000	-2.713489e+001	1.879242e+000
5592175000	-2.718868e+001	8.122020e-001
5613400000	-2.727266e+001	-1.048586e-001
5634625000	-2.727774e+001	-1.167858e+000
5655850000	-2.735078e+001	-2.326929e+000
5677075000	-2.735899e+001	-3.260922e+000
5698300000	-2.735933e+001	-4.467498e+000
5719525000	-2.733398e+001	-5.165595e+000
5740750000	-2.735873e+001	-6.658675e+000
5761975000	-2.742885e+001	-6.888635e+000
5783200000	-2.746794e+001	-7.477640e+000
5804425000	-2.749669e+001	-8.859152e+000
5825650000	-2.753825e+001	-9.625360e+000
5846875000	-2.758251e+001	-1.083317e+001
5868100000	-2.762352e+001	-1.162813e+001
5889325000	-2.769209e+001	-1.287884e+001
5910550000	-2.770308e+001	-1.353617e+001
5931775000	-2.772676e+001	-1.433305e+001
5953000000	-2.775612e+001	-1.498834e+001
5974225000	-2.783041e+001	-1.553483e+001
5995450000	-2.787366e+001	-1.654103e+001
6016675000	-2.800505e+001	-1.725048e+001
6037900000	-2.796179e+001	-1.829738e+001
6059125000	-2.814861e+001	-1.988651e+001
6080350000	-2.810779e+001	-1.997961e+001
6101575000	-2.817752e+001	-2.128724e+001
6122800000	-2.822382e+001	-2.241254e+001
6144025000	-2.829994e+001	-2.397814e+001
6165250000	-2.827670e+001	-2.493953e+001
6186475000	-2.832556e+001	-2.543364e+001
6207700000	-2.820968e+001	-2.644966e+001
6228925000	-2.832123e+001	-2.714459e+001
6250150000	-2.828852e+001	-2.736536e+001
6271375000	-2.843576e+001	-2.833360e+001
6292600000	-2.852565e+001	-2.935027e+001
6313825000	-2.863989e+001	-3.095122e+001
6335050000	-2.866175e+001	-3.197418e+001
6356275000	-2.864725e+001	-3.291103e+001
6377500000	-2.861603e+001	-3.474413e+001
6398725000	-2.855253e+001	-3.528505e+001
6419950000	-2.845522e+001	-3.592004e+001
6441175000	-2.847570e+001	-3.556255e+001
6462400000	-2.856052e+001	-3.607803e+001
6483625000	-2.867419e+001	-3.709516e+001
6504850000	-2.887718e+001	-3.696250e+001
6526075000	-2.890563e+001	-3.937090e+001
6547300000	-2.888125e+001	-4.052326e+001
6568525000	-2.892723e+001	-4.209617e+001
6589750000	-2.870717e+001	-4.343145e+001
6610975000	-2.867414e+001	-4.432416e+001
6632200000	-2.880174e+001	-4.511543e+001
6653425000	-2.892288e+001	-4.509676e+001
6674650000	-2.894343e+001	-4.508434e+001
6695875000	-2.905023e+001	-4.593423e+001
6717100000	-2.914379e+001	-4.689835e+001
6738325000	-2.918073e+001	-4.871746e+001
6759550000	-2.926125e+001	-5.038505e+001
6780775000	-2.941311e+001	-5.145297e+001
6802000000	-2.945255e+001	-5.354855e+001
6823225000	-2.947599e+001	-5.518879e+001
6844450000	-2.956135e+001	-5.629498e+001
6865675000	-2.948223e+001	-5.808902e+001
6886900000	-2.951234e+001	-5.991726e+001
6908125000	-2.949689e+001	-6.128560e+001
6929350000	-2.933495e+001	-6.214950e+001
6950575000	-2.943984e+001	-6.356161e+001
6971800000	-2.929807e+001	-6.469164e+001
6993025000	-2.939631e+001	-6.559036e+001
7014250000	-2.940782e+001	-6.614819e+001
7035475000	-2.956477e+001	-6.783977e+001
7056700000	-2.954309e+001	-6.913867e+001
7077925000	-2.965569e+001	-7.169156e+001
7099150000	-2.968198e+001	-7.305827e+001
7120375000	-2.963582e+001	-7.425733e+001
7141600000	-2.965724e+001	-7.547647e+001
7162825000	-2.953038e+001	-7.636702e+001
7184050000	-2.968898e+001	-7.732345e+001
7205275000	-2.980624e+001	-7.754221e+001
7226500000	-3.004402e+001	-8.038913e+001
7247725000	-3.009708e+001	-8.121294e+001
7268950000	-3.029852e+001	-8.429009e+001
7290175000	-3.035315e+001	-8.714347e+001
7311400000	-3.021000e+001	-8.979699e+001
7332625000	-3.013793e+001	-9.220592e+001
7353850000	-3.009530e+001	-9.337682e+001
7375075000	-3.027599e+001	-9.406077e+001
7396300000	-3.027751e+001	-9.639070e+001
7417525000	-3.053461e+001	-9.712653e+001
7438750000	-3.053532e+001	-1.001559e+002
7459975000	-3.090648e+001	-1.019429e+002
7481200000	-3.087021e+001	-1.058770e+002
7502425000	-3.079980e+001	-1.087377e+002
7523650000	-3.080486e+001	-1.138771e+002
7544875000	-3.066406e+001	-1.157566e+002
7566100000	-3.077852e+001	-1.170414e+002
7587325000	-3.048434e+001	-1.195729e+002
7608550000	-3.024595e+001	-1.208483e+002
7629775000	-3.041433e+001	-1.230822e+002
7651000000	-3.046478e+001	-1.262120e+002
7672225000	-3.050511e+001	-1.278254e+002
7693450000	-3.061999e+001	-1.327026e+002
7714675000	-3.075453e+001	-1.359270e+002
7735900000	-3.085597e+001	-1.379429e+002
7757125000	-3.021501e+001	-1.393624e+002
7778350000	-2.987047e+001	-1.428473e+002
7799575000	-3.001764e+001	-1.470259e+002
7820800000	-2.990759e+001	-1.469149e+002
7842025000	-2.996509e+001	-1.483761e+002
7863250000	-2.985339e+001	-1.517878e+002
7884475000	-3.011902e+001	-1.567076e+002
7905700000	-3.040500e+001	-1.569022e+002
7926925000	-2.989433e+001	-1.586634e+002
7948150000	-2.918225e+001	-1.638943e+002
7969375000	-2.919312e+001	-1.701203e+002
7990600000	-2.929602e+001	-1.714000e+002
8011825000	-2.925640e+001	-1.732425e+002
8033050000	-2.888214e+001	-1.756055e+002
8054275000	-2.905164e+001	-1.791862e+002
8075500000	-2.914673e+001	1.796743e+002
8096725000	-2.861274e+001	-1.797113e+002
8117950000	-2.813832e+001	1.749881e+002
8139175000	-2.788065e+001	1.676246e+002
8160400000	-2.818448e+001	1.652562e+002
8181625000	-2.825077e+001	1.645452e+002
8202850000	-2.763621e+001	1.623646e+002
8224075000	-2.745634e+001	1.584525e+002
8245300000	-2.785232e+001	1.555012e+002
8266525000	-2.729166e+001	1.567740e+002
8287750000	-2.657809e+001	1.538622e+002
8308975000	-2.624784e+001	1.481066e+002
8330200000	-2.640134e+001	1.438177e+002
8351425000	-2.633121e+001	1.427681e+002
8372650000	-2.598705e+001	1.420553e+002
8393875000	-2.546158e+001	1.398162e+002
8415100000	-2.544184e+001	1.385751e+002
8436325000	-2.540002e+001	1.376601e+002
8457550000	-2.487695e+001	1.357681e+002
8478775000	-2.465102e+001	1.315459e+002
8500000000	-2.483215e+001	1.287401e+002
