!Agilent Technologies,E5071C,MY46101917,A.08.10
!Date: Mon Jan 01 00:58:09 2001
!Data & Calibration Information:
!Freq	S11:SOLT2(ON)	S21:SOLT2(ON)	S12:SOLT2(ON)	S22:SOLT2(ON)
# Hz S dB R 50
10000000	-1.733123e-003	-1.209133e+001	-4.060903e+001	7.746621e+001	-4.060275e+001	7.748013e+001	-2.707287e-003	-1.276837e+001
31225000	-5.458367e-003	-3.673541e+001	-3.143834e+001	5.316557e+001	-3.143843e+001	5.295379e+001	-1.071064e-002	-3.900086e+001
52450000	-1.363633e-002	-5.871309e+001	-2.829425e+001	3.095891e+001	-2.829766e+001	3.089756e+001	-3.609908e-002	-6.263644e+001
73675000	-1.915560e-002	-7.737033e+001	-2.708583e+001	1.200160e+001	-2.708850e+001	1.193528e+001	-5.452653e-002	-8.310433e+001
94900000	-2.912627e-002	-9.283260e+001	-2.682731e+001	-3.711667e+000	-2.680940e+001	-3.724973e+000	-7.805419e-002	-1.003170e+002
116125000	-3.515886e-002	-1.056235e+002	-2.705953e+001	-1.653215e+001	-2.706749e+001	-1.651355e+001	-1.131674e-001	-1.149053e+002
137350000	-3.838108e-002	-1.162319e+002	-2.754416e+001	-2.709677e+001	-2.755959e+001	-2.709450e+001	-1.294374e-001	-1.273186e+002
158575000	-4.712451e-002	-1.251198e+002	-2.819561e+001	-3.610781e+001	-2.817593e+001	-3.600987e+001	-1.433336e-001	-1.379141e+002
179800000	-5.023804e-002	-1.326552e+002	-2.887618e+001	-4.368289e+001	-2.890298e+001	-4.356765e+001	-1.635903e-001	-1.472674e+002
201025000	-5.298142e-002	-1.392093e+002	-2.966309e+001	-5.047211e+001	-2.966259e+001	-5.025691e+001	-1.810513e-001	-1.555463e+002
222250000	-5.702084e-002	-1.448493e+002	-3.049327e+001	-5.653314e+001	-3.051904e+001	-5.607821e+001	-1.920695e-001	-1.629839e+002
243475000	-6.058384e-002	-1.498732e+002	-3.136841e+001	-6.167175e+001	-3.138679e+001	-6.146372e+001	-2.064767e-001	-1.698000e+002
264700000	-7.050580e-002	-1.543952e+002	-3.234406e+001	-6.626096e+001	-3.230851e+001	-6.606093e+001	-2.187250e-001	-1.761088e+002
285925000	-7.452116e-002	-1.584623e+002	-3.326634e+001	-7.004132e+001	-3.324017e+001	-6.981389e+001	-2.336304e-001	1.780866e+002
307150000	-7.700346e-002	-1.622515e+002	-3.416453e+001	-7.302981e+001	-3.416975e+001	-7.294838e+001	-2.383594e-001	1.726425e+002
328375000	-8.058540e-002	-1.656741e+002	-3.504064e+001	-7.683867e+001	-3.505822e+001	-7.638632e+001	-2.521831e-001	1.674492e+002
349600000	-8.363037e-002	-1.689003e+002	-3.604172e+001	-8.038355e+001	-3.597176e+001	-7.974973e+001	-2.601378e-001	1.625474e+002
370825000	-8.976723e-002	-1.718495e+002	-3.717533e+001	-8.375557e+001	-3.711867e+001	-8.346829e+001	-2.686381e-001	1.578496e+002
392050000	-9.271663e-002	-1.746449e+002	-3.840090e+001	-8.630473e+001	-3.838846e+001	-8.620890e+001	-2.754385e-001	1.533180e+002
413275000	-9.707755e-002	-1.772903e+002	-3.971073e+001	-8.810683e+001	-3.970340e+001	-8.837763e+001	-2.809388e-001	1.489746e+002
434500000	-9.646619e-002	-1.798329e+002	-4.100496e+001	-8.960325e+001	-4.111466e+001	-8.980345e+001	-2.856998e-001	1.448076e+002
455725000	-9.885933e-002	1.777800e+002	-4.242217e+001	-9.175693e+001	-4.255751e+001	-9.125209e+001	-2.869175e-001	1.407667e+002
476950000	-1.063017e-001	1.754443e+002	-4.421203e+001	-9.339765e+001	-4.413405e+001	-9.270150e+001	-2.930017e-001	1.368014e+002
498175000	-1.094682e-001	1.732311e+002	-4.606510e+001	-9.484639e+001	-4.613169e+001	-9.362268e+001	-2.993123e-001	1.329369e+002
519400000	-1.132038e-001	1.710633e+002	-4.878411e+001	-9.584133e+001	-4.870389e+001	-9.399139e+001	-2.999617e-001	1.291643e+002
540625000	-1.169365e-001	1.689971e+002	-5.186023e+001	-9.363575e+001	-5.198096e+001	-9.194928e+001	-3.072987e-001	1.254700e+002
561850000	-1.180141e-001	1.669535e+002	-5.708450e+001	-8.384262e+001	-5.678467e+001	-8.277019e+001	-3.119784e-001	1.218307e+002
583075000	-1.170092e-001	1.650515e+002	-6.351689e+001	-3.933791e+001	-6.356106e+001	-4.057916e+001	-3.204956e-001	1.181950e+002
604300000	-1.244754e-001	1.631494e+002	-5.987106e+001	2.817796e+001	-5.985188e+001	2.784513e+001	-3.105385e-001	1.146350e+002
625525000	-1.232123e-001	1.613137e+002	-5.461525e+001	4.590638e+001	-5.435760e+001	4.677271e+001	-3.151784e-001	1.111389e+002
646750000	-1.283612e-001	1.595173e+002	-5.074410e+001	5.080731e+001	-5.066729e+001	5.175417e+001	-3.140492e-001	1.076951e+002
667975000	-1.304539e-001	1.577633e+002	-4.847516e+001	5.165020e+001	-4.848976e+001	5.150675e+001	-3.102606e-001	1.042692e+002
689200000	-1.341423e-001	1.560078e+002	-4.664543e+001	5.071692e+001	-4.667855e+001	5.058474e+001	-3.147469e-001	1.008881e+002
710425000	-1.361163e-001	1.542803e+002	-4.537478e+001	5.090501e+001	-4.530224e+001	4.986287e+001	-3.139855e-001	9.753474e+001
731650000	-1.411847e-001	1.525230e+002	-4.413791e+001	5.036142e+001	-4.408022e+001	5.012089e+001	-3.222159e-001	9.416921e+001
752875000	-1.413349e-001	1.508538e+002	-4.307388e+001	4.931888e+001	-4.299155e+001	4.885815e+001	-3.241115e-001	9.076993e+001
774100000	-1.442790e-001	1.492005e+002	-4.206932e+001	4.816547e+001	-4.215458e+001	4.786948e+001	-3.171784e-001	8.746820e+001
795325000	-1.460895e-001	1.475658e+002	-4.127913e+001	4.618626e+001	-4.128439e+001	4.586699e+001	-3.145815e-001	8.411829e+001
816550000	-1.468828e-001	1.459267e+002	-4.072431e+001	4.418567e+001	-4.057021e+001	4.403177e+001	-3.170057e-001	8.087798e+001
837775000	-1.476381e-001	1.443233e+002	-4.011903e+001	4.277406e+001	-4.004399e+001	4.219252e+001	-3.152445e-001	7.761496e+001
859000000	-1.522392e-001	1.427246e+002	-3.965886e+001	4.115269e+001	-3.955793e+001	4.111433e+001	-3.123733e-001	7.441284e+001
880225000	-1.548559e-001	1.411012e+002	-3.916260e+001	4.057964e+001	-3.903038e+001	4.004749e+001	-3.101383e-001	7.117654e+001
901450000	-1.570759e-001	1.395163e+002	-3.864755e+001	3.896841e+001	-3.854433e+001	3.867739e+001	-3.155697e-001	6.793184e+001
922675000	-1.668954e-001	1.379384e+002	-3.819096e+001	3.793494e+001	-3.812943e+001	3.725026e+001	-3.153812e-001	6.470874e+001
943900000	-1.653075e-001	1.363434e+002	-3.771280e+001	3.624798e+001	-3.772670e+001	3.555433e+001	-3.148564e-001	6.150170e+001
965125000	-1.631441e-001	1.347833e+002	-3.730013e+001	3.424315e+001	-3.731621e+001	3.368021e+001	-3.113971e-001	5.835708e+001
986350000	-1.653047e-001	1.332645e+002	-3.705088e+001	3.202139e+001	-3.700398e+001	3.142367e+001	-3.087850e-001	5.522461e+001
1007575000	-1.660012e-001	1.317107e+002	-3.679672e+001	3.023439e+001	-3.681537e+001	3.008507e+001	-3.058260e-001	5.207780e+001
1028800000	-1.742780e-001	1.301751e+002	-3.670029e+001	2.892819e+001	-3.662069e+001	2.805235e+001	-3.001734e-001	4.894241e+001
1050025000	-1.732903e-001	1.286014e+002	-3.648273e+001	2.774003e+001	-3.645508e+001	2.704323e+001	-3.083013e-001	4.584123e+001
1071250000	-1.729803e-001	1.270806e+002	-3.619704e+001	2.648943e+001	-3.619708e+001	2.630807e+001	-3.061077e-001	4.272177e+001
1092475000	-1.807555e-001	1.255261e+002	-3.599910e+001	2.497243e+001	-3.595771e+001	2.501525e+001	-3.042081e-001	3.957865e+001
1113700000	-1.800802e-001	1.239641e+002	-3.585941e+001	2.321610e+001	-3.575028e+001	2.300324e+001	-3.023386e-001	3.639684e+001
1134925000	-1.769992e-001	1.224251e+002	-3.575624e+001	2.149852e+001	-3.561721e+001	2.051726e+001	-3.010472e-001	3.327965e+001
1156150000	-1.781557e-001	1.208626e+002	-3.565229e+001	2.020152e+001	-3.561607e+001	1.869137e+001	-2.982138e-001	3.019864e+001
1177375000	-1.779007e-001	1.193149e+002	-3.562197e+001	1.872785e+001	-3.569381e+001	1.720944e+001	-3.005551e-001	2.705238e+001
1198600000	-1.881038e-001	1.177415e+002	-3.554893e+001	1.721958e+001	-3.567510e+001	1.625530e+001	-2.963342e-001	2.392763e+001
1219825000	-1.921531e-001	1.162256e+002	-3.552551e+001	1.621126e+001	-3.563446e+001	1.542455e+001	-2.991096e-001	2.087090e+001
1241050000	-1.894195e-001	1.146661e+002	-3.550737e+001	1.494728e+001	-3.557996e+001	1.426033e+001	-2.984184e-001	1.773328e+001
1262275000	-1.950897e-001	1.130599e+002	-3.548148e+001	1.342933e+001	-3.558967e+001	1.297237e+001	-2.995140e-001	1.459914e+001
1283500000	-1.914781e-001	1.114735e+002	-3.554431e+001	1.182231e+001	-3.566644e+001	1.134839e+001	-2.986296e-001	1.143404e+001
1304725000	-1.964313e-001	1.098699e+002	-3.564147e+001	9.926671e+000	-3.574997e+001	9.727017e+000	-3.023037e-001	8.287271e+000
1325950000	-2.038919e-001	1.082692e+002	-3.585826e+001	8.217889e+000	-3.583335e+001	7.855847e+000	-3.040814e-001	5.105000e+000
1347175000	-2.034552e-001	1.066771e+002	-3.616645e+001	6.599409e+000	-3.617450e+001	6.164193e+000	-2.971733e-001	1.900952e+000
1368400000	-2.111661e-001	1.051030e+002	-3.657745e+001	5.973226e+000	-3.658631e+001	4.877857e+000	-3.078321e-001	-1.308391e+000
1389625000	-2.120858e-001	1.034436e+002	-3.689736e+001	6.082732e+000	-3.706280e+001	3.825343e+000	-3.073651e-001	-4.507951e+000
1410850000	-2.191069e-001	1.018144e+002	-3.718128e+001	5.537055e+000	-3.761384e+001	3.939732e+000	-3.154526e-001	-7.750940e+000
1432075000	-2.214992e-001	1.001800e+002	-3.754875e+001	4.439699e+000	-3.808816e+001	4.519820e+000	-3.137195e-001	-1.103748e+001
1453300000	-2.259997e-001	9.846347e+001	-3.823331e+001	2.389400e+000	-3.864883e+001	3.824512e+000	-3.171769e-001	-1.436216e+001
1474525000	-2.254757e-001	9.677308e+001	-3.928058e+001	1.240354e+000	-3.949977e+001	3.076389e+000	-3.224473e-001	-1.770321e+001
1495750000	-2.338347e-001	9.506720e+001	-4.063646e+001	1.461963e+000	-4.076444e+001	2.539358e+000	-3.254822e-001	-2.108342e+001
1516975000	-2.455719e-001	9.331459e+001	-4.239735e+001	4.082178e+000	-4.254735e+001	4.515909e+000	-3.280108e-001	-2.445921e+001
1538200000	-2.514913e-001	9.154951e+001	-4.478622e+001	1.090448e+001	-4.501781e+001	1.048198e+001	-3.325391e-001	-2.784925e+001
1559425000	-2.608024e-001	8.969895e+001	-4.766448e+001	2.598008e+001	-4.810425e+001	2.411003e+001	-3.391335e-001	-3.130759e+001
1580650000	-2.667422e-001	8.786268e+001	-5.013196e+001	5.989356e+001	-5.110224e+001	6.187193e+001	-3.511448e-001	-3.477470e+001
1601875000	-2.782975e-001	8.595255e+001	-4.778416e+001	1.033414e+002	-4.848941e+001	1.068720e+002	-3.530466e-001	-3.831353e+001
1623100000	-2.878591e-001	8.394710e+001	-4.344697e+001	1.239972e+002	-4.383078e+001	1.275676e+002	-3.642766e-001	-4.187326e+001
1644325000	-2.929369e-001	8.197472e+001	-3.977237e+001	1.296162e+002	-3.983750e+001	1.349084e+002	-3.715476e-001	-4.547784e+001
1665550000	-3.087080e-001	7.985657e+001	-3.699737e+001	1.331811e+002	-3.679809e+001	1.368238e+002	-3.847456e-001	-4.914093e+001
1686775000	-3.242735e-001	7.774946e+001	-3.457039e+001	1.346802e+002	-3.440207e+001	1.369407e+002	-3.995329e-001	-5.285910e+001
1708000000	-3.451529e-001	7.553934e+001	-3.231440e+001	1.351918e+002	-3.225950e+001	1.366340e+002	-4.126069e-001	-5.668389e+001
1729225000	-3.616651e-001	7.326955e+001	-3.021874e+001	1.344162e+002	-3.028838e+001	1.361674e+002	-4.326194e-001	-6.057835e+001
1750450000	-3.863977e-001	7.082588e+001	-2.829559e+001	1.325534e+002	-2.837764e+001	1.350033e+002	-4.526424e-001	-6.453483e+001
1771675000	-4.119697e-001	6.833097e+001	-2.659702e+001	1.300755e+002	-2.658832e+001	1.328883e+002	-4.806880e-001	-6.854816e+001
1792900000	-4.370095e-001	6.573169e+001	-2.496645e+001	1.278044e+002	-2.498930e+001	1.305700e+002	-5.064168e-001	-7.268894e+001
1814125000	-4.713469e-001	6.295120e+001	-2.336237e+001	1.251282e+002	-2.346411e+001	1.285195e+002	-5.440059e-001	-7.697332e+001
1835350000	-5.212174e-001	5.999691e+001	-2.183704e+001	1.216491e+002	-2.185558e+001	1.266317e+002	-5.870124e-001	-8.135997e+001
1856575000	-5.795731e-001	5.690760e+001	-2.045415e+001	1.178666e+002	-2.012500e+001	1.236730e+002	-6.437076e-001	-8.598210e+001
1877800000	-6.433232e-001	5.352849e+001	-1.917074e+001	1.146897e+002	-1.846926e+001	1.190741e+002	-7.123260e-001	-9.076361e+001
1899025000	-7.362662e-001	4.992200e+001	-1.786543e+001	1.120539e+002	-1.704159e+001	1.134472e+002	-7.917638e-001	-9.576805e+001
1920250000	-8.352980e-001	4.599884e+001	-1.637165e+001	1.093621e+002	-1.581646e+001	1.082847e+002	-8.874495e-001	-1.010014e+002
1941475000	-9.680637e-001	4.178197e+001	-1.475026e+001	1.052760e+002	-1.466280e+001	1.041958e+002	-1.020367e+000	-1.065803e+002
1962700000	-1.130385e+000	3.715755e+001	-1.319098e+001	9.929054e+001	-1.334294e+001	1.007721e+002	-1.180120e+000	-1.124896e+002
1983925000	-1.357601e+000	3.201207e+001	-1.186877e+001	9.224865e+001	-1.180825e+001	9.670811e+001	-1.395549e+000	-1.188106e+002
2005150000	-1.661923e+000	2.643484e+001	-1.073088e+001	8.563291e+001	-1.016392e+001	9.089211e+001	-1.688437e+000	-1.254697e+002
2026375000	-2.062934e+000	2.013717e+001	-9.619734e+000	7.976830e+001	-8.575161e+000	8.287069e+001	-2.087453e+000	-1.326435e+002
2047600000	-2.605232e+000	1.319528e+001	-8.360219e+000	7.404842e+001	-7.198816e+000	7.323545e+001	-2.590442e+000	-1.403030e+002
2068825000	-3.325184e+000	5.430834e+000	-6.946410e+000	6.701716e+001	-6.115586e+000	6.311786e+001	-3.261318e+000	-1.483563e+002
2090050000	-4.317380e+000	-3.022166e+000	-5.574602e+000	5.788200e+001	-5.261037e+000	5.336544e+001	-4.175760e+000	-1.566755e+002
2111275000	-5.672017e+000	-1.209502e+001	-4.450625e+000	4.712666e+001	-4.465956e+000	4.427018e+001	-5.382640e+000	-1.648085e+002
2132500000	-7.493658e+000	-2.137105e+001	-3.615813e+000	3.602606e+001	-3.652766e+000	3.502481e+001	-6.909095e+000	-1.721858e+002
2153725000	-9.964327e+000	-3.052617e+001	-2.993224e+000	2.514179e+001	-2.902146e+000	2.492090e+001	-8.841769e+000	-1.777982e+002
2174950000	-1.342698e+001	-3.914628e+001	-2.510815e+000	1.463445e+001	-2.353724e+000	1.414335e+001	-1.111268e+001	1.797771e+002
2196175000	-1.874358e+001	-4.577837e+001	-2.156555e+000	4.417221e+000	-2.037883e+000	3.657293e+000	-1.355340e+001	-1.776892e+002
2217400000	-2.990054e+001	-3.930094e+001	-1.925360e+000	-5.408905e+000	-1.859388e+000	-5.959545e+000	-1.566830e+001	-1.688363e+002
2238625000	-2.760186e+001	9.704706e+001	-1.784953e+000	-1.469993e+001	-1.728903e+000	-1.480914e+001	-1.674674e+001	-1.563182e+002
2259850000	-2.043386e+001	9.863570e+001	-1.702984e+000	-2.344679e+001	-1.615421e+000	-2.323674e+001	-1.669988e+001	-1.461659e+002
2281075000	-1.742029e+001	9.486348e+001	-1.664531e+000	-3.169275e+001	-1.524983e+000	-3.138019e+001	-1.634153e+001	-1.418060e+002
2302300000	-1.588731e+001	9.086134e+001	-1.641995e+000	-3.939923e+001	-1.457975e+000	-3.934772e+001	-1.611684e+001	-1.415465e+002
2323525000	-1.518144e+001	8.724409e+001	-1.605704e+000	-4.678368e+001	-1.430474e+000	-4.712010e+001	-1.628674e+001	-1.440444e+002
2344750000	-1.494925e+001	8.478284e+001	-1.543331e+000	-5.404150e+001	-1.446811e+000	-5.460091e+001	-1.693969e+001	-1.479184e+002
2365975000	-1.523322e+001	8.425430e+001	-1.487337e+000	-6.144986e+001	-1.481921e+000	-6.165839e+001	-1.824650e+001	-1.526296e+002
2387200000	-1.583145e+001	8.621675e+001	-1.473604e+000	-6.887637e+001	-1.485186e+000	-6.840460e+001	-2.056074e+001	-1.575523e+002
2408425000	-1.654430e+001	9.255898e+001	-1.488275e+000	-7.616964e+001	-1.454736e+000	-7.516155e+001	-2.492684e+001	-1.599379e+002
2429650000	-1.700497e+001	1.035807e+002	-1.490780e+000	-8.340737e+001	-1.417060e+000	-8.216239e+001	-3.657098e+001	-1.329143e+002
2450875000	-1.656514e+001	1.183641e+002	-1.507910e+000	-9.096730e+001	-1.391347e+000	-8.937891e+001	-2.721150e+001	-1.747379e+001
2472100000	-1.504882e+001	1.302122e+002	-1.611948e+000	-9.882629e+001	-1.388528e+000	-9.694478e+001	-1.980777e+001	-1.800116e+001
2493325000	-1.318344e+001	1.372064e+002	-1.822523e+000	-1.064334e+002	-1.458468e+000	-1.050404e+002	-1.567331e+001	-2.427158e+001
2514550000	-1.128810e+001	1.404388e+002	-2.071341e+000	-1.134528e+002	-1.690465e+000	-1.133917e+002	-1.278537e+001	-3.108271e+001
2535775000	-9.547793e+000	1.404090e+002	-2.277064e+000	-1.202244e+002	-2.118102e+000	-1.212199e+002	-1.053713e+001	-3.855408e+001
2557000000	-8.058613e+000	1.382068e+002	-2.463181e+000	-1.274148e+002	-2.650132e+000	-1.276776e+002	-8.788592e+000	-4.638022e+001
2578225000	-6.802091e+000	1.350275e+002	-2.727279e+000	-1.352634e+002	-3.123567e+000	-1.327034e+002	-7.373190e+000	-5.403351e+001
2599450000	-5.730099e+000	1.312953e+002	-3.169912e+000	-1.433757e+002	-3.408069e+000	-1.369046e+002	-6.215700e+000	-6.163515e+001
2620675000	-4.835801e+000	1.269531e+002	-3.852155e+000	-1.509601e+002	-3.459719e+000	-1.415992e+002	-5.260837e+000	-6.924497e+001
2641900000	-4.138726e+000	1.224733e+002	-4.692229e+000	-1.567912e+002	-3.390804e+000	-1.480442e+002	-4.522255e+000	-7.665974e+001
2663125000	-3.576792e+000	1.183541e+002	-5.471569e+000	-1.603246e+002	-3.485543e+000	-1.568258e+002	-3.938166e+000	-8.349913e+001
2684350000	-3.082958e+000	1.145997e+002	-5.930636e+000	-1.625439e+002	-4.053365e+000	-1.665744e+002	-3.419130e+000	-8.979851e+001
2705575000	-2.628311e+000	1.106572e+002	-6.009713e+000	-1.658004e+002	-5.154328e+000	-1.743873e+002	-2.945524e+000	-9.607586e+001
2726800000	-2.285560e+000	1.066921e+002	-6.053036e+000	-1.721111e+002	-6.421098e+000	-1.777610e+002	-2.589020e+000	-1.023297e+002
2748025000	-2.001262e+000	1.030682e+002	-6.520425e+000	1.796279e+002	-7.252311e+000	-1.770520e+002	-2.298625e+000	-1.081420e+002
2769250000	-1.745757e+000	9.952121e+001	-7.531083e+000	1.726791e+002	-7.289527e+000	-1.760283e+002	-2.033804e+000	-1.137483e+002
2790475000	-1.561772e+000	9.607063e+001	-8.745007e+000	1.696800e+002	-6.825774e+000	-1.790075e+002	-1.840813e+000	-1.191914e+002
2811700000	-1.413195e+000	9.295834e+001	-9.614594e+000	1.700940e+002	-6.522980e+000	1.730418e+002	-1.685388e+000	-1.242891e+002
2832925000	-1.261894e+000	9.018064e+001	-9.921181e+000	1.710727e+002	-6.902384e+000	1.628681e+002	-1.526570e+000	-1.289928e+002
2854150000	-1.107132e+000	8.737068e+001	-9.847097e+000	1.698786e+002	-7.951975e+000	1.544657e+002	-1.369757e+000	-1.336682e+002
2875375000	-9.890559e-001	8.457104e+001	-9.764244e+000	1.659692e+002	-9.258731e+000	1.500938e+002	-1.255005e+000	-1.383184e+002
2896600000	-8.994792e-001	8.190212e+001	-9.916594e+000	1.602848e+002	-1.036451e+001	1.493821e+002	-1.165426e+000	-1.428625e+002
2917825000	-8.280310e-001	7.939266e+001	-1.040442e+001	1.543176e+002	-1.103360e+001	1.506148e+002	-1.092533e+000	-1.472217e+002
2939050000	-7.548435e-001	7.697779e+001	-1.118972e+001	1.493765e+002	-1.116844e+001	1.515993e+002	-1.012244e+000	-1.514611e+002
2960275000	-6.994700e-001	7.467511e+001	-1.212985e+001	1.467938e+002	-1.094141e+001	1.502013e+002	-9.576624e-001	-1.555376e+002
2981500000	-6.456064e-001	7.242782e+001	-1.291377e+001	1.470487e+002	-1.066544e+001	1.450879e+002	-9.078135e-001	-1.595546e+002
3002725000	-5.838030e-001	7.033337e+001	-1.323297e+001	1.486400e+002	-1.079666e+001	1.369039e+002	-8.531545e-001	-1.634421e+002
3023950000	-5.332587e-001	6.826392e+001	-1.305039e+001	1.486874e+002	-1.162660e+001	1.285098e+002	-7.981901e-001	-1.673478e+002
3045175000	-4.968563e-001	6.622654e+001	-1.275746e+001	1.450609e+002	-1.297053e+001	1.236463e+002	-7.663803e-001	-1.711669e+002
3066400000	-4.676777e-001	6.422952e+001	-1.283047e+001	1.383753e+002	-1.426623e+001	1.237778e+002	-7.425817e-001	-1.749677e+002
3087625000	-4.384514e-001	6.232644e+001	-1.350618e+001	1.319814e+002	-1.495783e+001	1.268835e+002	-7.102779e-001	-1.786536e+002
3108850000	-4.088143e-001	6.048119e+001	-1.448588e+001	1.288629e+002	-1.494497e+001	1.289579e+002	-6.814004e-001	1.777539e+002
3130075000	-3.866561e-001	5.871415e+001	-1.527289e+001	1.290863e+002	-1.466256e+001	1.272415e+002	-6.613566e-001	1.742390e+002
3151300000	-3.590715e-001	5.698332e+001	-1.559481e+001	1.301268e+002	-1.461104e+001	1.222678e+002	-6.372764e-001	1.707034e+002
3172525000	-3.341700e-001	5.528315e+001	-1.562064e+001	1.296941e+002	-1.499116e+001	1.164724e+002	-6.095755e-001	1.672243e+002
3193750000	-3.143784e-001	5.364973e+001	-1.561501e+001	1.274373e+002	-1.568060e+001	1.119552e+002	-5.929987e-001	1.637849e+002
3214975000	-2.965622e-001	5.198255e+001	-1.571183e+001	1.241164e+002	-1.645684e+001	1.089739e+002	-5.869282e-001	1.603091e+002
3236200000	-2.844159e-001	5.036846e+001	-1.589801e+001	1.201894e+002	-1.720376e+001	1.072204e+002	-5.719542e-001	1.569536e+002
3257425000	-2.750075e-001	4.876231e+001	-1.625512e+001	1.157758e+002	-1.790195e+001	1.065155e+002	-5.526365e-001	1.535940e+002
