!Agilent Technologies,E5071C,MY46101917,A.08.10
!Date: Mon Jan 01 01:05:39 2001
!Data & Calibration Information:
!Freq	S11:SOLT2(ON)	S21:SOLT2(ON)	S12:SOLT2(ON)	S22:SOLT2(ON)
# Hz S dB R 50
10000000	-7.850092e+001	6.075204e+000	-8.764062e+001	4.983341e+001	-8.820088e+001	1.249003e+002	2.951380e-005	-1.246134e-002
31225000	-6.781360e+001	-1.895075e+001	-9.478716e+001	-6.938641e+001	-9.532971e+001	3.386921e+001	-2.081362e-003	-6.878407e-002
52450000	-8.397723e+001	-8.526797e+001	-8.374752e+001	1.553771e+002	-8.385740e+001	1.566259e+002	-2.131032e-003	-1.403626e-001
73675000	-6.755109e+001	-3.839727e+001	-9.420900e+001	-1.048735e+002	-8.440658e+001	1.379553e+002	2.253087e-003	-1.913958e-001
94900000	-7.082081e+001	-3.269069e+001	-8.909028e+001	9.651682e+001	-7.899341e+001	3.578725e+001	1.562022e-003	-2.470610e-001
116125000	-6.642610e+001	1.782391e+001	-8.440016e+001	-1.738427e+002	-8.807942e+001	-3.211877e+001	-6.242335e-004	-2.924582e-001
137350000	-6.724141e+001	-2.257623e+001	-8.430439e+001	-1.511737e+002	-8.142920e+001	-7.290667e+000	-3.915627e-004	-3.566643e-001
158575000	-7.139896e+001	5.200047e+001	-8.510950e+001	-1.408649e+002	-9.049029e+001	1.056602e+002	4.154431e-004	-4.079590e-001
179800000	-6.522783e+001	4.619185e+001	-9.654311e+001	-1.383956e+002	-8.919945e+001	3.755390e+001	-9.413165e-004	-4.822372e-001
201025000	-7.340208e+001	1.013031e+002	-9.018904e+001	1.734132e+002	-9.078681e+001	-9.351060e+001	8.234143e-004	-4.926463e-001
222250000	-6.995258e+001	3.744557e+001	-8.910839e+001	-1.367572e+000	-9.123875e+001	1.042021e+002	-2.229812e-003	-5.400819e-001
243475000	-6.578738e+001	3.396477e+001	-8.640798e+001	4.560843e+000	-9.147588e+001	5.363957e+001	-1.322101e-003	-5.869388e-001
264700000	-7.564157e+001	4.275201e+001	-8.655771e+001	-8.412596e+001	-8.827148e+001	1.411472e+002	-5.530731e-004	-6.217574e-001
285925000	-6.812965e+001	4.473335e+001	-7.821113e+001	7.870165e+001	-8.522489e+001	-8.665567e+001	2.285777e-003	-6.534304e-001
307150000	-6.620196e+001	8.140107e+001	-8.259937e+001	1.131408e+002	-9.566271e+001	-8.673361e+001	5.071368e-003	-6.952955e-001
328375000	-7.471506e+001	9.394276e+001	-8.621278e+001	-2.303880e+001	-8.691686e+001	-1.322895e+002	5.967450e-004	-7.456419e-001
349600000	-6.835705e+001	8.166139e+001	-9.177081e+001	-1.220154e+001	-8.472249e+001	1.616864e+002	2.211151e-003	-7.582589e-001
370825000	-6.575671e+001	1.062744e+002	-9.274840e+001	-4.942816e+001	-8.192594e+001	-8.944764e+001	-3.205822e-003	-7.991656e-001
392050000	-6.751238e+001	8.496926e+001	-8.651153e+001	-3.741395e+001	-9.397256e+001	4.788739e+001	-1.602995e-003	-8.510983e-001
413275000	-6.188900e+001	5.534010e+001	-8.821824e+001	6.714142e+001	-8.482079e+001	-1.117579e+002	-5.217780e-004	-9.041042e-001
434500000	-6.803154e+001	1.205887e+002	-8.927543e+001	-1.725086e+002	-9.718374e+001	6.534247e+001	-1.130966e-003	-9.252253e-001
455725000	-6.589577e+001	1.830730e+001	-8.623498e+001	-7.895272e+001	-8.934172e+001	-6.023193e+001	1.335322e-003	-1.000094e+000
476950000	-6.608594e+001	7.176154e+001	-8.862578e+001	1.552853e+002	-8.674144e+001	-1.772502e+002	-1.838625e-003	-1.053497e+000
498175000	-6.087100e+001	3.726885e+001	-9.750199e+001	-1.059691e+002	-9.489714e+001	1.526040e+002	7.000916e-004	-1.084821e+000
519400000	-6.482411e+001	8.620516e+001	-8.372226e+001	1.553655e+002	-8.957057e+001	1.243717e+002	-1.158813e-003	-1.152093e+000
540625000	-5.848982e+001	6.471920e+001	-8.691950e+001	-9.009652e+000	-8.471843e+001	1.727379e+002	-4.156335e-003	-1.232009e+000
561850000	-5.753496e+001	8.120726e+001	-8.460290e+001	-1.710612e+002	-8.604263e+001	-9.643556e+001	-6.522624e-004	-1.268560e+000
583075000	-6.154279e+001	9.085906e+001	-8.781287e+001	8.844802e+001	-8.806067e+001	-1.251710e+001	-1.865903e-003	-1.325105e+000
604300000	-5.911752e+001	1.004621e+002	-8.997444e+001	-1.575896e+002	-8.840071e+001	8.555066e+000	2.040861e-003	-1.417421e+000
625525000	-5.625428e+001	1.142749e+002	-8.520532e+001	1.055768e+002	-8.474401e+001	1.040702e+002	-2.574388e-003	-1.430324e+000
646750000	-5.963323e+001	1.429635e+002	-8.707211e+001	-6.853768e+001	-8.150747e+001	-1.017760e+002	-1.807968e-003	-1.503228e+000
667975000	-5.898994e+001	1.171282e+002	-9.161361e+001	-1.085982e+002	-8.349548e+001	-3.898012e+001	4.664189e-003	-1.583546e+000
689200000	-5.941816e+001	1.350524e+002	-8.208575e+001	4.431113e+001	-8.901091e+001	9.936630e+001	7.244878e-004	-1.635214e+000
710425000	-6.077985e+001	1.236899e+002	-9.865298e+001	-3.642412e+001	-8.768445e+001	-6.751042e+001	-1.222849e-004	-1.698220e+000
731650000	-6.100149e+001	1.304579e+002	-9.045321e+001	4.775194e+001	-8.534472e+001	1.484144e+002	-5.110926e-004	-1.764046e+000
752875000	-6.102410e+001	1.428941e+002	-8.546325e+001	4.383692e+001	-8.304979e+001	4.189433e+001	9.377995e-004	-1.818997e+000
774100000	-6.068638e+001	1.460566e+002	-8.052217e+001	-1.307488e+002	-8.702215e+001	-2.390135e+001	4.768273e-004	-1.894826e+000
795325000	-6.103621e+001	1.287811e+002	-8.743896e+001	6.803996e+001	-8.801832e+001	1.236306e+002	-5.492734e-004	-1.952354e+000
816550000	-6.153176e+001	1.631455e+002	-8.341830e+001	-4.513761e+000	-8.412315e+001	-1.297268e+002	6.429493e-004	-1.985642e+000
837775000	-6.673482e+001	1.464395e+002	-8.798237e+001	4.656133e+001	-8.485819e+001	-1.880507e+001	2.796884e-003	-2.021050e+000
859000000	-6.079865e+001	1.337341e+002	-8.691869e+001	1.740466e+002	-8.598529e+001	-8.206632e+000	9.127570e-004	-2.083982e+000
880225000	-6.172363e+001	1.046690e+002	-8.284704e+001	-2.468224e+001	-8.986565e+001	-1.024539e+001	3.561712e-003	-2.115053e+000
901450000	-7.541919e+001	5.817808e+001	-8.971068e+001	6.676681e+000	-9.670890e+001	-1.666460e+002	5.850309e-004	-2.184169e+000
922675000	-7.057320e+001	1.685977e+002	-8.969297e+001	1.363176e+002	-9.299535e+001	5.602511e+001	1.110999e-003	-2.235385e+000
943900000	-6.225194e+001	5.125946e+001	-8.742341e+001	1.636700e+002	-8.525984e+001	1.574971e+002	3.386165e-004	-2.270163e+000
965125000	-6.205555e+001	8.871727e+001	-8.548233e+001	-1.072885e+002	-9.259746e+001	-8.941310e+001	1.063691e-003	-2.310188e+000
986350000	-5.874327e+001	9.877142e+001	-8.470098e+001	-1.097052e+002	-9.563610e+001	-6.865349e+001	2.040854e-003	-2.358723e+000
1007575000	-6.041120e+001	1.045046e+002	-9.228706e+001	-1.231452e+001	-8.647078e+001	1.628337e+002	2.304204e-003	-2.388612e+000
1028800000	-6.175654e+001	1.253509e+002	-8.653191e+001	1.103730e+002	-9.395109e+001	-1.574952e+002	5.633017e-003	-2.423084e+000
1050025000	-6.131954e+001	1.047453e+002	-9.741452e+001	-3.505105e+001	-8.377773e+001	-1.567946e+002	-2.083354e-003	-2.442892e+000
1071250000	-5.660534e+001	1.163702e+002	-8.849580e+001	6.096278e+001	-8.454082e+001	-1.008203e+002	2.974949e-004	-2.515002e+000
1092475000	-6.002449e+001	1.397775e+002	-8.584941e+001	1.700528e+002	-8.261162e+001	-8.638109e+001	1.713822e-003	-2.558147e+000
1113700000	-5.935423e+001	1.149498e+002	-8.840767e+001	7.480308e+001	-9.110710e+001	-1.168276e+002	6.504065e-004	-2.613147e+000
1134925000	-5.907793e+001	1.328552e+002	-8.343684e+001	-2.980547e+001	-9.802109e+001	9.573160e+001	8.346524e-004	-2.658544e+000
1156150000	-5.643624e+001	1.137452e+002	-9.173498e+001	8.668782e+001	-8.376356e+001	-4.202610e+000	3.840036e-003	-2.695346e+000
1177375000	-5.932407e+001	1.213815e+002	-8.611002e+001	5.541848e+001	-8.255492e+001	9.370394e+000	4.848426e-004	-2.721366e+000
1198600000	-6.149965e+001	1.254303e+002	-8.518046e+001	-3.348560e+001	-9.210780e+001	1.567818e+002	5.816124e-003	-2.762237e+000
1219825000	-5.774649e+001	1.538136e+002	-8.420536e+001	6.834936e+001	-9.192270e+001	-7.105550e+001	3.349595e-003	-2.776956e+000
1241050000	-5.876071e+001	1.267494e+002	-8.165642e+001	1.650427e+002	-8.757108e+001	9.888265e+001	1.677510e-003	-2.806182e+000
1262275000	-5.966656e+001	1.310082e+002	-8.257981e+001	-1.578695e+001	-8.374423e+001	-4.532807e+001	5.260229e-003	-2.857402e+000
1283500000	-5.847772e+001	1.190029e+002	-8.467833e+001	-1.373490e+002	-8.670750e+001	-1.276079e+002	3.555844e-003	-2.929050e+000
1304725000	-5.943288e+001	1.036985e+002	-8.261968e+001	-4.527648e+001	-9.321425e+001	1.159778e+002	2.762945e-003	-2.950351e+000
1325950000	-5.985221e+001	1.282825e+002	-8.749839e+001	1.759906e+002	-8.666129e+001	-6.494951e+001	1.168651e-004	-3.016365e+000
1347175000	-5.716947e+001	1.102371e+002	-8.711219e+001	-1.287630e+002	-8.523874e+001	1.460341e+002	8.277282e-003	-3.086830e+000
1368400000	-5.524834e+001	1.240595e+002	-8.498715e+001	-1.410830e+002	-8.548653e+001	-1.175864e+002	3.454241e-003	-3.120899e+000
1389625000	-5.742292e+001	1.093492e+002	-8.894283e+001	1.260973e+002	-9.553585e+001	4.375265e+001	7.261972e-003	-3.146745e+000
1410850000	-5.613443e+001	1.145584e+002	-8.817950e+001	1.482149e+002	-9.700305e+001	-4.256754e+001	3.912937e-003	-3.179304e+000
1432075000	-5.402240e+001	1.361729e+002	-8.750758e+001	8.088668e+001	-8.716022e+001	-1.593249e+002	-1.842530e-004	-3.252114e+000
1453300000	-5.477950e+001	1.174846e+002	-8.917835e+001	1.202411e+002	-9.632006e+001	2.554677e+001	2.031502e-003	-3.310417e+000
1474525000	-5.406813e+001	1.218997e+002	-9.830348e+001	8.998746e+001	-8.194708e+001	-5.710207e+001	3.470853e-003	-3.373761e+000
1495750000	-5.404507e+001	1.308633e+002	-9.435330e+001	1.424668e+002	-9.061402e+001	-1.222977e+000	2.877646e-003	-3.422088e+000
1516975000	-5.213318e+001	1.462044e+002	-8.129596e+001	-1.568598e+002	-8.014712e+001	5.917635e+001	1.089889e-002	-3.490118e+000
1538200000	-5.171838e+001	1.400828e+002	-9.095145e+001	-9.874629e+001	-9.012646e+001	7.529544e+001	9.665524e-003	-3.558590e+000
1559425000	-5.241992e+001	1.472349e+002	-9.065501e+001	1.292688e+002	-9.952149e+001	-1.936814e+001	8.894522e-003	-3.593298e+000
1580650000	-5.179263e+001	1.494600e+002	-8.503395e+001	1.423269e+002	-8.932399e+001	7.428822e+001	-5.610067e-004	-3.655336e+000
1601875000	-5.173846e+001	1.490094e+002	-1.039021e+002	-8.049252e+001	-8.104767e+001	6.071828e+001	3.844705e-003	-3.710584e+000
1623100000	-5.205853e+001	1.537881e+002	-8.440745e+001	8.879637e+001	-8.558578e+001	4.626635e+001	1.488517e-003	-3.736745e+000
1644325000	-5.343297e+001	1.619592e+002	-8.413353e+001	1.718970e+002	-9.207049e+001	-9.447570e+001	2.692121e-003	-3.791432e+000
1665550000	-5.407253e+001	1.572188e+002	-8.086446e+001	-7.387930e+001	-8.509724e+001	-9.369713e+001	7.910527e-003	-3.876283e+000
1686775000	-5.233389e+001	1.662874e+002	-8.793541e+001	-7.613100e+001	-8.665151e+001	8.564606e+001	9.025331e-003	-3.934045e+000
1708000000	-5.300036e+001	1.626341e+002	-8.054151e+001	-1.308614e+002	-8.545988e+001	-1.521199e+002	8.341308e-003	-3.968819e+000
1729225000	-5.368718e+001	1.583440e+002	-8.977549e+001	-1.736598e+002	-9.599502e+001	-1.737337e+002	9.038821e-003	-4.010847e+000
1750450000	-5.464148e+001	1.568072e+002	-8.520870e+001	1.437535e+002	-9.649448e+001	-9.308909e+001	5.276283e-003	-4.074240e+000
1771675000	-5.303948e+001	1.639238e+002	-8.352711e+001	-1.026539e+000	-8.562959e+001	-6.294969e+001	1.175651e-002	-4.122867e+000
1792900000	-5.332984e+001	1.606857e+002	-8.615056e+001	1.598299e+002	-8.170505e+001	9.431275e+001	6.661276e-003	-4.206383e+000
1814125000	-5.331604e+001	1.608214e+002	-8.727392e+001	5.594975e+001	-8.814626e+001	8.221932e+001	1.128619e-002	-4.269658e+000
1835350000	-5.281001e+001	1.716431e+002	-8.524119e+001	-2.816376e+001	-9.010163e+001	-9.237916e+001	1.148428e-002	-4.286252e+000
1856575000	-5.315961e+001	1.712332e+002	-8.177165e+001	-2.459677e+001	-9.447351e+001	-1.288095e+002	1.329650e-002	-4.299407e+000
1877800000	-5.419570e+001	1.597603e+002	-8.369057e+001	1.712712e+002	-9.058461e+001	-1.780650e+002	1.918584e-002	-4.370861e+000
1899025000	-5.255789e+001	1.702093e+002	-8.322781e+001	-6.092308e+001	-8.944284e+001	1.454222e+002	1.659172e-002	-4.424940e+000
1920250000	-5.405222e+001	-1.771424e+002	-8.762115e+001	-9.217377e+001	-9.233890e+001	2.212147e+001	1.211679e-002	-4.444145e+000
1941475000	-5.495406e+001	1.670399e+002	-7.946678e+001	1.726460e+002	-8.231218e+001	-1.091638e+002	1.368657e-002	-4.523707e+000
1962700000	-5.391311e+001	1.658527e+002	-8.369376e+001	7.052079e+001	-8.511409e+001	-4.731206e+001	1.251920e-002	-4.617475e+000
1983925000	-5.504885e+001	1.727070e+002	-9.648951e+001	4.778052e+001	-9.396990e+001	-2.264216e+001	8.213565e-003	-4.619037e+000
2005150000	-5.252288e+001	1.719316e+002	-8.490719e+001	-1.773404e+002	-8.757942e+001	1.463675e+002	1.118371e-002	-4.681312e+000
2026375000	-5.175523e+001	1.723217e+002	-8.361282e+001	-1.578813e+002	-8.965275e+001	-1.641291e+001	1.944793e-002	-4.717887e+000
2047600000	-5.135848e+001	1.758374e+002	-8.588748e+001	-1.398934e+002	-8.390353e+001	-1.285448e+002	1.976187e-002	-4.694980e+000
2068825000	-5.226107e+001	1.780464e+002	-8.456444e+001	-1.476301e+002	-8.726326e+001	1.162580e+002	1.602541e-002	-4.758658e+000
2090050000	-5.258507e+001	-1.766860e+002	-7.882596e+001	1.701986e+002	-8.159491e+001	-3.710324e+001	1.642973e-002	-4.765112e+000
2111275000	-5.301406e+001	-1.768795e+002	-8.513001e+001	-3.600614e+001	-8.536575e+001	-1.323862e+002	1.524831e-002	-4.788206e+000
2132500000	-5.310701e+001	1.746783e+002	-7.806011e+001	-5.568256e+001	-8.440835e+001	-1.444659e+001	1.361401e-002	-4.878626e+000
2153725000	-5.356095e+001	1.739337e+002	-8.712385e+001	-3.444118e+001	-8.454633e+001	-1.358747e+002	2.092133e-002	-4.963884e+000
2174950000	-5.319221e+001	1.619427e+002	-9.119292e+001	-3.932538e+001	-8.730641e+001	-1.715334e+002	1.856582e-002	-5.013915e+000
2196175000	-5.354062e+001	1.559597e+002	-8.238209e+001	2.203886e+001	-8.381286e+001	1.753581e+002	2.364063e-002	-5.065951e+000
2217400000	-5.208159e+001	-1.798818e+002	-8.755856e+001	-2.597974e+001	-8.815985e+001	1.331812e+002	1.710997e-002	-5.102413e+000
2238625000	-5.316713e+001	1.682132e+002	-8.057264e+001	1.511550e+002	-8.146075e+001	1.449039e+002	3.062383e-002	-5.136395e+000
2259850000	-5.300257e+001	1.772817e+002	-7.985295e+001	-8.886199e+001	-8.337856e+001	6.182291e+001	1.381768e-002	-5.119241e+000
2281075000	-5.264396e+001	-1.795780e+002	-7.974643e+001	-1.430531e+002	-9.472241e+001	7.350699e+000	1.724433e-002	-5.156272e+000
2302300000	-5.241923e+001	-1.772963e+002	-8.051111e+001	1.281456e+002	-9.414268e+001	-8.168250e+001	1.720802e-002	-5.192610e+000
2323525000	-5.234078e+001	1.797977e+002	-8.632675e+001	-1.584328e+002	-8.714274e+001	6.466595e+001	1.744586e-002	-5.233005e+000
2344750000	-5.470088e+001	1.753546e+002	-8.321318e+001	2.383302e+001	-8.397716e+001	-1.724919e+002	2.462488e-002	-5.291294e+000
2365975000	-5.288508e+001	1.781216e+002	-8.563410e+001	-6.954411e+000	-8.918679e+001	1.217357e+002	2.220329e-002	-5.348389e+000
2387200000	-5.316314e+001	-1.766586e+002	-8.536535e+001	-3.288611e+001	-8.801601e+001	-1.101553e+002	3.028742e-002	-5.356546e+000
2408425000	-5.190961e+001	-1.751980e+002	-9.258034e+001	5.014171e+001	-9.183663e+001	-6.061114e+001	2.897647e-002	-5.396837e+000
2429650000	-5.251209e+001	1.708985e+002	-9.771990e+001	-1.447301e+002	-8.447742e+001	1.064101e+002	2.588258e-002	-5.435496e+000
2450875000	-5.223143e+001	1.725549e+002	-8.657373e+001	2.897631e+001	-8.740806e+001	-1.611683e+002	2.847125e-002	-5.541805e+000
2472100000	-5.132686e+001	1.684784e+002	-8.677073e+001	-2.804533e+001	-8.909390e+001	-1.709386e+002	2.872882e-002	-5.574960e+000
2493325000	-5.071079e+001	1.731752e+002	-9.758014e+001	-1.367218e+002	-8.084642e+001	3.912330e+001	2.030766e-002	-5.620747e+000
2514550000	-5.044164e+001	1.720224e+002	-8.652588e+001	1.364123e+002	-9.569574e+001	-1.030799e+002	2.765748e-002	-5.665334e+000
2535775000	-4.991143e+001	-1.774747e+002	-8.273293e+001	1.077112e+002	-8.281344e+001	-6.487455e+001	2.763933e-002	-5.713357e+000
2557000000	-5.039374e+001	-1.790831e+002	-8.822554e+001	8.507958e+001	-8.465569e+001	-7.602648e+001	3.211431e-002	-5.786758e+000
2578225000	-5.117055e+001	1.766756e+002	-8.307304e+001	-1.639389e+002	-8.605908e+001	9.361003e+001	4.111998e-002	-5.821034e+000
2599450000	-5.094030e+001	-1.713457e+002	-8.819551e+001	7.412213e+001	-8.667090e+001	5.527115e+001	3.295714e-002	-5.905548e+000
2620675000	-5.021412e+001	-1.710022e+002	-9.143416e+001	-2.803545e+001	-8.531201e+001	1.853579e+001	3.103014e-002	-5.983769e+000
2641900000	-4.997418e+001	-1.712345e+002	-9.013576e+001	2.432451e+001	-8.519935e+001	1.570537e+002	3.061850e-002	-6.035074e+000
2663125000	-5.017106e+001	-1.781614e+002	-8.346109e+001	1.374969e+002	-8.973723e+001	-6.197120e+001	3.264306e-002	-6.101760e+000
2684350000	-5.014025e+001	-1.710101e+002	-9.076120e+001	7.358089e+001	-9.099337e+001	7.043660e+001	3.421381e-002	-6.120417e+000
2705575000	-5.054078e+001	-1.661051e+002	-8.786823e+001	-1.115643e+002	-8.152568e+001	8.066177e+001	3.536143e-002	-6.164207e+000
2726800000	-4.948057e+001	-1.725999e+002	-8.463349e+001	1.232757e+002	-8.530498e+001	-4.114844e+001	3.511876e-002	-6.244203e+000
2748025000	-4.992021e+001	-1.640481e+002	-8.364738e+001	5.469551e+001	-8.484128e+001	1.350488e+002	3.869346e-002	-6.259337e+000
2769250000	-5.044482e+001	-1.569665e+002	-8.255327e+001	1.098264e+002	-8.020031e+001	-6.567736e+001	3.551921e-002	-6.278472e+000
2790475000	-5.072408e+001	-1.587462e+002	-8.140561e+001	1.508768e+002	-8.981267e+001	5.158883e+001	3.804238e-002	-6.360478e+000
2811700000	-5.027393e+001	-1.627863e+002	-8.465332e+001	-1.202296e+002	-8.225931e+001	-2.156421e+001	3.215936e-002	-6.458056e+000
2832925000	-5.078087e+001	-1.553835e+002	-8.417870e+001	-1.152440e+001	-8.189621e+001	5.201853e+001	3.553021e-002	-6.515298e+000
2854150000	-5.090867e+001	-1.575189e+002	-1.008030e+002	-1.518633e+002	-8.802269e+001	-6.036359e+001	3.399460e-002	-6.620030e+000
2875375000	-5.051682e+001	-1.629830e+002	-8.804049e+001	-6.145921e+001	-1.024919e+002	-1.071310e+002	3.718612e-002	-6.644494e+000
2896600000	-5.094877e+001	-1.572428e+002	-8.296632e+001	9.704271e+001	-8.248302e+001	9.508170e+000	3.355359e-002	-6.700964e+000
2917825000	-5.064245e+001	-1.521724e+002	-9.844726e+001	-1.723507e+002	-8.504805e+001	-1.158103e+002	4.412066e-002	-6.728988e+000
2939050000	-5.086074e+001	-1.535816e+002	-8.576677e+001	-7.973208e+001	-1.100069e+002	3.885953e+001	3.852038e-002	-6.737310e+000
2960275000	-5.059346e+001	-1.536258e+002	-9.038971e+001	-1.112701e+002	-8.814975e+001	6.669866e+001	3.907016e-002	-6.801918e+000
2981500000	-5.142273e+001	-1.503569e+002	-8.880730e+001	-8.607530e+001	-8.319198e+001	1.079053e+002	3.930993e-002	-6.829403e+000
3002725000	-5.167096e+001	-1.558209e+002	-8.572769e+001	-9.068027e+001	-8.024591e+001	-1.565980e+002	3.480731e-002	-6.900656e+000
3023950000	-5.082924e+001	-1.486208e+002	-7.732851e+001	8.389755e+001	-8.966255e+001	-2.734934e+001	3.909451e-002	-6.948563e+000
3045175000	-5.135428e+001	-1.600946e+002	-1.041512e+002	-6.154423e+001	-8.374306e+001	7.046833e+001	4.855776e-002	-7.002035e+000
3066400000	-5.047387e+001	-1.562130e+002	-8.161127e+001	8.297721e+001	-9.231694e+001	8.820374e+001	4.564588e-002	-7.073395e+000
3087625000	-5.122193e+001	-1.515529e+002	-8.223956e+001	4.083344e-001	-8.374770e+001	3.095392e+001	4.946616e-002	-7.092361e+000
3108850000	-5.121715e+001	-1.455055e+002	-8.724529e+001	-1.260319e+002	-9.284788e+001	-1.024363e+001	4.491052e-002	-7.116252e+000
3130075000	-5.099283e+001	-1.473325e+002	-8.993148e+001	-1.737371e+002	-8.533787e+001	-1.704098e+002	4.418275e-002	-7.185285e+000
3151300000	-5.390688e+001	-1.459229e+002	-8.374148e+001	-1.142874e+002	-9.126925e+001	1.023716e+002	3.855297e-002	-7.266213e+000
3172525000	-5.348006e+001	-1.503624e+002	-8.127534e+001	1.392027e+002	-8.497894e+001	2.714079e+001	4.597377e-002	-7.295887e+000
3193750000	-5.237056e+001	-1.612382e+002	-8.284954e+001	1.410052e+002	-9.693335e+001	-1.143473e+002	4.834187e-002	-7.374554e+000
3214975000	-5.267879e+001	-1.611394e+002	-8.964490e+001	9.737298e+001	-8.982807e+001	7.731693e+000	5.141052e-002	-7.330765e+000
3236200000	-5.189463e+001	-1.630297e+002	-8.342205e+001	-6.889888e+001	-8.536984e+001	8.198935e+001	5.120084e-002	-7.442147e+000
3257425000	-5.096161e+001	-1.654933e+002	-7.725283e+001	9.361873e+001	-9.136955e+001	1.215303e+002	5.854006e-002	-7.464309e+000
